!Keysight Technologies,N5225A,MY55451607,A.10.47.03
!Date: Friday, May 31, 2024 10:46:05
!Correction: S11(Full 2 Port(1,2)) 
!S21(Full 2 Port(1,2)) 
!S12(Full 2 Port(1,2)) 
!S22(Full 2 Port(1,2)) 
!S2P File: Measurements: S11, S21, S12, S22:
# Hz S  RI   R 50
25000000000 -0.019315057 0.029723343 1.0110701 -0.025157072 1.0091732 -0.025959816 -0.027744969 0.03011198
25018750000 -0.020030502 0.029503349 1.0116699 -0.024247011 1.0087267 -0.025311088 -0.027241757 0.03069658
25037500000 -0.019981312 0.029438386 1.0113168 -0.024172837 1.0094247 -0.024703721 -0.027971694 0.030890061
25056250000 -0.019848596 0.02980195 1.0114832 -0.023399347 1.0102069 -0.025251279 -0.028425682 0.02902553
25075000000 -0.019734127 0.030131362 1.011519 -0.023770826 1.0089184 -0.025038395 -0.026253393 0.025624968
25093750000 -0.020159505 0.030290918 1.0109586 -0.022764938 1.0085183 -0.023682732 -0.02214892 0.02332123
25112500000 -0.020352732 0.030086214 1.0117413 -0.022041872 1.0089067 -0.023519371 -0.018417126 0.025266308
25131250000 -0.020142438 0.02941877 1.0116197 -0.022246484 1.0086974 -0.023045305 -0.016912753 0.029454526
25150000000 -0.019063346 0.029086675 1.0108292 -0.021426065 1.009554 -0.023153482 -0.018055312 0.032521531
25168750000 -0.017422711 0.029163912 1.0113084 -0.020796038 1.0081743 -0.023163663 -0.018777382 0.032665875
25187500000 -0.016014827 0.02956564 1.0111433 -0.02111716 1.0078626 -0.021313779 -0.017615629 0.030538846
25206250000 -0.015471195 0.030276272 1.0105622 -0.020462686 1.0079602 -0.021366429 -0.015265302 0.029693196
25225000000 -0.015411485 0.030758742 1.0109862 -0.020478431 1.0072993 -0.021194847 -0.013443992 0.030741671
25243750000 -0.015891276 0.03061666 1.0102153 -0.020643521 1.0082152 -0.02132128 -0.013275473 0.031957198
25262500000 -0.016438177 0.030327993 1.0101588 -0.019529091 1.0074862 -0.021979291 -0.012888571 0.03146204
25281250000 -0.016665792 0.029394271 1.010947 -0.019465312 1.0074456 -0.020058878 -0.01065676 0.029486218
25300000000 -0.017150335 0.028470896 1.0104703 -0.019310746 1.0080061 -0.019724745 -0.0067915209 0.028761342
25318750000 -0.017305279 0.027801758 1.0104313 -0.018559473 1.0075188 -0.019486979 -0.0034259507 0.030605193
25337500000 -0.016875943 0.02711452 1.0100619 -0.018205192 1.0077206 -0.019536788 -0.0025197188 0.033906009
25356250000 -0.015815876 0.026742432 1.0103161 -0.017490545 1.0072724 -0.019659715 -0.0032153805 0.036685064
25375000000 -0.014589065 0.026070209 1.010239 -0.017883819 1.0069866 -0.018414205 -0.0037032501 0.037642185
25393750000 -0.013930634 0.025651293 1.0094891 -0.017591719 1.0073638 -0.017589051 -0.0034665861 0.037908211
25412500000 -0.013607068 0.0253563 1.0094115 -0.016778616 1.0072258 -0.017467346 -0.0029845578 0.038546693
25431250000 -0.013563526 0.024992492 1.0094957 -0.016415091 1.0069325 -0.017732361 -0.003599006 0.039414164
25450000000 -0.013602734 0.024504367 1.0093726 -0.016057963 1.0061135 -0.017660083 -0.0047466285 0.039317701
25468750000 -0.01345682 0.023962863 1.0095112 -0.015937362 1.0062394 -0.016801633 -0.0054237247 0.038024511
25487500000 -0.01327731 0.023350637 1.0089788 -0.016254315 1.0070232 -0.016319754 -0.0046546464 0.036558762
25506250000 -0.013159683 0.023061706 1.0085618 -0.015312123 1.0068185 -0.016320042 -0.0032272062 0.035418022
25525000000 -0.012862753 0.022966092 1.0091299 -0.014825485 1.0046504 -0.013709975 -0.0026521152 0.03473521
25543750000 -0.012778874 0.022193981 1.0089748 -0.015043374 1.0046077 -0.013454742 -0.0027291428 0.033536151
25562500000 -0.012962202 0.021433711 1.0085125 -0.014513306 1.0049134 -0.013541443 -0.0021726799 0.032436512
25581250000 -0.012809441 0.020563446 1.0085622 -0.014221906 1.00491 -0.012884916 -0.00083345949 0.032191437
25600000000 -0.012472074 0.0199566 1.0085498 -0.013698128 1.005028 -0.012158613 0.0001989482 0.033399437
25618750000 -0.012020622 0.019530334 1.0088098 -0.013487275 1.0045824 -0.012012267 -4.2152948e-005 0.034791876
25637500000 -0.012377086 0.019030437 1.0085709 -0.013240523 1.0041097 -0.011784106 -0.0018737916 0.034674712
25656250000 -0.013196525 0.018218879 1.008337 -0.012893843 1.0040914 -0.011725753 -0.0036808196 0.033194669
25675000000 -0.013773694 0.016645087 1.0083016 -0.012758665 1.004566 -0.011458358 -0.0038083999 0.031650212
25693750000 -0.013706551 0.015481899 1.008083 -0.012269648 1.0048949 -0.010885432 -0.0026083621 0.03093319
25712500000 -0.012618056 0.015440687 1.0082635 -0.011814758 1.004577 -0.01051489 -0.0011901925 0.031139327
25731250000 -0.012033999 0.016192226 1.0084231 -0.011824094 1.004155 -0.01010863 -0.00054813223 0.031127132
25750000000 -0.013116477 0.017494353 1.0080881 -0.011610944 1.0038357 -0.010195048 -0.00014277319 0.03059449
25768750000 -0.015094866 0.018162543 1.0081061 -0.010775636 1.0040089 -0.010020095 0.00055937096 0.03032217
25787500000 -0.016433865 0.0173133 1.008298 -0.010872312 1.004609 -0.0099073937 0.0015502858 0.031129997
25806250000 -0.016464109 0.015977055 1.0080523 -0.010530723 1.0043912 -0.0095422203 0.0021348479 0.032060593
25825000000 -0.014670064 0.015483832 1.0079548 -0.010174318 1.0041744 -0.0088473428 0.0014570869 0.031777374
25843750000 -0.013389969 0.016114095 1.0079833 -0.010176459 1.0040259 -0.0085749533 0.00054502714 0.030314587
25862500000 -0.013765558 0.017856529 1.0077798 -0.0097970068 1.003788 -0.0087058432 0.000568141 0.028115906
25881250000 -0.015343978 0.019021204 1.0078577 -0.0096209338 1.003481 -0.0085315239 0.00077083905 0.026276512
25900000000 -0.017366974 0.018968351 1.0078912 -0.0095067145 1.0035228 -0.0082816193 0.00063839846 0.024827702
25918750000 -0.018539341 0.018618844 1.0077373 -0.0092868097 1.0032731 -0.0080019394 0.00020577594 0.022657521
25937500000 -0.018891165 0.018458791 1.0076246 -0.0091013741 1.0030645 -0.008051998 0.00059921393 0.019287104
25956250000 -0.019629758 0.01872571 1.0077522 -0.008862216 1.0030214 -0.0080613764 0.0023913907 0.015699714
25975000000 -0.020826673 0.018698674 1.0076462 -0.0086524561 1.0032818 -0.0079818293 0.0050075236 0.013978931
25993750000 -0.022324486 0.017894946 1.0076997 -0.0084941108 1.0034374 -0.0076596057 0.0073170504 0.014236809
26012500000 -0.022419564 0.016152577 1.0076512 -0.0083163818 1.0032527 -0.0073643583 0.0085227126 0.014488119
26031250000 -0.02103097 0.014236714 1.0075011 -0.0080162873 1.0034043 -0.0070080524 0.0091605512 0.013621958
26050000000 -0.019458175 0.013815431 1.007445 -0.0077463505 1.0034548 -0.0070587369 0.01087758 0.012301276
26068750000 -0.018482171 0.015286158 1.0075742 -0.0077147628 1.0033649 -0.0069339634 0.013765081 0.011651124
26087500000 -0.018837398 0.016810324 1.0075594 -0.0074788486 1.0033984 -0.0065132962 0.015835363 0.012524347
26106250000 -0.020292794 0.017255204 1.0074788 -0.0071359384 1.0032526 -0.006303044 0.016120112 0.014080667
26125000000 -0.020888792 0.016572785 1.007432 -0.0070010871 1.0032588 -0.0060012043 0.01528885 0.014027514
26143750000 -0.020066418 0.015645042 1.0073762 -0.0066141956 1.0031401 -0.0057416032 0.015149199 0.012290112
26162500000 -0.018705098 0.016293921 1.0074029 -0.0067987605 1.003139 -0.0056086658 0.016817205 0.010099962
26181250000 -0.018225893 0.017930198 1.0072169 -0.0065695136 1.0028775 -0.0054473123 0.019065728 0.0092783319
26200000000 -0.019799594 0.019055104 1.0072112 -0.0059863427 1.0028141 -0.005179042 0.020926552 0.01009343
26218750000 -0.02208516 0.018138932 1.0071613 -0.0058262073 1.0027924 -0.0052804407 0.021492533 0.01130721
26237500000 -0.022740833 0.01509623 1.0069723 -0.0056780181 1.002777 -0.0053954818 0.021838848 0.012654607
26256250000 -0.021083454 0.012473672 1.0070174 -0.0056638578 1.0032804 -0.0050195036 0.022555988 0.013774918
26275000000 -0.01752574 0.012026363 1.0068064 -0.0056716567 1.0034478 -0.0046429881 0.022666346 0.015144181
26293750000 -0.014842479 0.013459444 1.0069215 -0.0053752367 1.0035677 -0.0039631049 0.02160443 0.016714601
26312500000 -0.014352998 0.015517241 1.0071973 -0.0052821054 1.0034248 -0.0037547962 0.020040834 0.017139964
26331250000 -0.015485046 0.016185444 1.0068488 -0.0049812784 1.0030439 -0.0037251236 0.018723939 0.016635787
26350000000 -0.017042307 0.014976477 1.0069604 -0.0045965766 1.0029659 -0.0035905673 0.018770028 0.015742794
26368750000 -0.017311342 0.013526786 1.0069058 -0.0048864167 1.0031704 -0.0035008616 0.019360891 0.014602352
26387500000 -0.016259626 0.012394887 1.0065528 -0.0043129888 1.0032196 -0.0034306881 0.019217806 0.013519884
26406250000 -0.015716121 0.01217573 1.0068518 -0.0041074799 1.0031226 -0.0031251556 0.019249888 0.012352187
26425000000 -0.015460149 0.012692307 1.0067123 -0.0041938233 1.0028917 -0.0027523306 0.020167898 0.011235642
26443750000 -0.015185123 0.012269847 1.0065011 -0.0038841781 1.0028317 -0.0025355264 0.022353638 0.011405324
26462500000 -0.014972185 0.011558787 1.0066233 -0.0035056635 1.0031704 -0.0024513982 0.024967015 0.013340017
26481250000 -0.014188251 0.011511683 1.006591 -0.0034683689 1.0030948 -0.0023229085 0.026154926 0.016028108
26500000000 -0.013725872 0.012042076 1.006556 -0.0033286538 1.0031552 -0.0019020612 0.025747148 0.018056253
26518750000 -0.013931793 0.012825992 1.0063264 -0.0032207924 1.0032846 -0.0018531006 0.024859613 0.018433133
26537500000 -0.014865633 0.013070242 1.0065098 -0.0027893202 1.0029014 -0.0016810886 0.02431195 0.018345604
26556250000 -0.015641605 0.012633944 1.0067564 -0.0028564301 1.0030756 -0.001452082 0.024204381 0.018496513
26575000000 -0.015436641 0.01190659 1.0064481 -0.0027423331 1.0032037 -0.0017928885 0.023027088 0.01877935
26593750000 -0.014979935 0.011774262 1.0065583 -0.0021659799 1.0031892 -0.0015625134 0.021048205 0.018058941
26612500000 -0.015372907 0.012818725 1.0067296 -0.0023405838 1.0033621 -0.0010025523 0.019821497 0.01545363
26631250000 -0.016917478 0.013858405 1.0061028 -0.0020838911 1.0028788 -0.00086919166 0.020335976 0.012347693
26650000000 -0.019120555 0.013532403 1.0064757 -0.0013354183 1.0026371 -0.00085149752 0.02252204 0.011387647
26668750000 -0.020595184 0.012463951 1.006658 -0.0017855003 1.0030879 -0.0013800694 0.024181008 0.012171038
26687500000 -0.01997273 0.010788002 1.0058162 -0.0013002614 1.0028658 -0.0010907475 0.023576107 0.013795815
26706250000 -0.018559476 0.009815908 1.0064677 -0.0011222396 1.0033565 -0.00045595088 0.021524625 0.013753747
26725000000 -0.017239042 0.01078913 1.0063162 -0.001554804 1.0030655 -0.00027988045 0.019299617 0.01177301
26743750000 -0.017009802 0.012558265 1.0063097 -0.0008448647 1.0027241 0.00024554052 0.018224664 0.0095681995
26762500000 -0.018430518 0.014068987 1.0067732 -0.00071693474 1.0031614 -0.00011988136 0.017491063 0.0078431154
26781250000 -0.019735888 0.015052813 1.0065253 -0.00057628495 1.0026321 -0.00039987804 0.016167022 0.0068877297
26800000000 -0.021005576 0.015271715 1.0066936 -0.00012749882 1.0027061 0.00040729943 0.014533528 0.0050752633
26818750000 -0.02273649 0.015314668 1.0068383 -6.9776477e-005 1.0029727 0.00062887382 0.013491779 0.0015354519
26837500000 -0.02428191 0.01506397 1.0066605 0.00024328388 1.0019606 0.00052421237 0.013715976 -0.0019310351
26856250000 -0.025786908 0.014121118 1.0065507 0.00026907693 1.0022521 0.0010535641 0.015017499 -0.004173364
26875000000 -0.026127174 0.012912861 1.0064107 0.00061418809 1.0028002 0.00031698472 0.015931731 -0.005057795
26893750000 -0.025091616 0.011704577 1.0068532 0.00087435014 1.0024706 0.00019078098 0.016350692 -0.0054936027
26912500000 -0.024167921 0.011679982 1.0068895 0.00035858457 1.0023942 0.0012563773 0.017655907 -0.0063651991
26931250000 -0.023386758 0.012787779 1.0061302 0.00095741666 1.0029689 0.0012976647 0.019496284 -0.0075493003
26950000000 -0.023602409 0.013413855 1.0069512 0.0013990799 1.0023044 0.00082356046 0.021669017 -0.0073765023
26968750000 -0.02471742 0.013909697 1.0068771 0.00073082815 1.0025403 0.0008471437 0.022893274 -0.0060205432
26987500000 -0.024700595 0.014125905 1.0061748 0.0014265545 1.002395 0.00076444953 0.021688256 -0.0046013389
27006250000 -0.024819355 0.014083307 1.0070575 0.0013963823 1.0026821 0.0015059813 0.01970114 -0.0044928971
27025000000 -0.025129044 0.014434988 1.0065665 0.0014388207 1.0022397 0.0010442658 0.017780317 -0.0064582257
27043750000 -0.02556438 0.014230743 1.0068554 0.0018799913 1.0011295 0.0020745995 0.016948404 -0.0085915448
27062500000 -0.026657075 0.013678406 1.00693 0.0016174871 1.0026529 0.00182046 0.017467489 -0.010663781
27081250000 -0.027347865 0.012907181 1.0066431 0.0021689902 1.0020421 0.00048887957 0.018033629 -0.011428201
27100000000 -0.027794795 0.011918155 1.0068783 0.001955352 1.00123 0.0025670219 0.019692527 -0.01125384
27118750000 -0.027231086 0.011201266 1.0060815 0.0022605294 1.0029368 0.0027928876 0.021693876 -0.011326386
27137500000 -0.025716946 0.010224422 1.0068748 0.0032106743 1.0023571 0.0018791578 0.023306308 -0.010710785
27156250000 -0.023685452 0.0093587674 1.0073798 0.0020554089 1.0022467 0.0022404238 0.024479978 -0.0097777247
27175000000 -0.021248046 0.010015678 1.0061435 0.0018849284 1.002385 0.0021299217 0.024123188 -0.008766952
27193750000 -0.019411467 0.011535631 1.0065002 0.0031253851 1.0023092 0.002959728 0.02353375 -0.0083066504
27212500000 -0.019439964 0.013496979 1.0075462 0.0023506465 1.0027647 0.0030641006 0.023655729 -0.0091083609
27231250000 -0.020308016 0.015079144 1.0063695 0.0028036521 1.0022441 0.0030437848 0.024521163 -0.01001981
27250000000 -0.020850997 0.014582109 1.0075923 0.0035468843 1.002162 0.0033125696 0.025911273 -0.010356446
27268750000 -0.020962458 0.013581188 1.0071738 0.0021879976 1.0022595 0.002954552 0.026092604 -0.010608395
27287500000 -0.019762523 0.012933104 1.0062282 0.0037350608 1.0019989 0.003488281 0.025778875 -0.010564484
27306250000 -0.019463912 0.012634162 1.0079529 0.0034710816 1.0023429 0.0040741242 0.026533803 -0.011159793
27325000000 -0.020404406 0.013115956 1.0071121 0.0022727035 1.0027047 0.0037916454 0.028216602 -0.01187755
27343750000 -0.021301595 0.012644811 1.0064698 0.0037785289 1.0018671 0.0032999441 0.030680865 -0.011532284
27362500000 -0.021779781 0.011137257 1.0068721 0.0040297005 1.0018482 0.0036847757 0.0329362 -0.010112887
27381250000 -0.020944495 0.0096128583 1.0068914 0.0045220247 1.0020325 0.0034232407 0.033809401 -0.0084335851
27400000000 -0.019787369 0.0090744728 1.0073757 0.0038446852 1.001609 0.0044076126 0.033815272 -0.0069935448
27418750000 -0.019004241 0.0099546518 1.0062026 0.0032476145 1.0028232 0.0044357637 0.033221856 -0.0067302035
27437500000 -0.019364137 0.010859286 1.006508 0.0043687392 1.002431 0.0029213177 0.032002296 -0.0062231836
27456250000 -0.020671291 0.011116441 1.0073068 0.0037645148 1.0012957 0.0040900456 0.030398762 -0.0057421871
27475000000 -0.021504048 0.011390446 1.0062023 0.003587981 1.0021996 0.0041383039 0.027624473 -0.0064467238
27493750000 -0.021502253 0.011288457 1.0067848 0.0048293881 1.0022346 0.0044341711 0.024658997 -0.0076248525
27512500000 -0.021988308 0.011864758 1.0075865 0.0036522024 1.0029031 0.0042790924 0.023586499 -0.0095912535
27531250000 -0.022999717 0.012619145 1.0059032 0.0042526089 1.0015 0.0035662721 0.023727445 -0.010792961
27550000000 -0.024491338 0.011386738 1.0075676 0.0058203656 1.000993 0.005516984 0.025032319 -0.010537996
27568750000 -0.025655128 0.009636825 1.0078449 0.0038418244 1.0028666 0.0044157915 0.025052903 -0.01058822
27587500000 -0.024516335 0.007777073 1.0061289 0.0043141549 1.0011556 0.0036259321 0.023409849 -0.010117748
27606250000 -0.022161704 0.0072534606 1.0071371 0.004225865 1.0023659 0.0053945803 0.022336481 -0.010873582
27625000000 -0.019889768 0.0089733722 1.0065122 0.0042552543 1.002926 0.0043803672 0.021223202 -0.01200817
27643750000 -0.019473089 0.011302472 1.0078373 0.00479599 1.0015486 0.0049639917 0.020822017 -0.012286676
27662500000 -0.021502221 0.013250689 1.0079305 0.0034701182 1.0016382 0.0055079628 0.020242948 -0.012773203
27681250000 -0.023293654 0.013534646 1.0066525 0.0042732712 1.0016797 0.0053566732 0.018218378 -0.013367565
27700000000 -0.024374444 0.012440953 1.007462 0.0047194394 1.0022306 0.0053732283 0.016076697 -0.01523552
27718750000 -0.024672434 0.011910857 1.0074641 0.0042701326 1.0022086 0.0050778994 0.01451569 -0.018138111
27737500000 -0.025083195 0.011806497 1.0077102 0.0045254468 1.0014558 0.0055939192 0.014344243 -0.020984726
27756250000 -0.026489092 0.011981604 1.0078554 0.0038693205 1.0004998 0.0061735488 0.015386418 -0.023117257
27775000000 -0.028086836 0.011774796 1.0065743 0.0041945432 1.001171 0.0072149634 0.016810207 -0.023820255
27793750000 -0.028589893 0.010882085 1.0072304 0.0059372205 1.0023507 0.0054479861 0.017599795 -0.023198918
27812500000 -0.027970836 0.0098708319 1.0085952 0.0046978109 1.0008389 0.005208286 0.018275298 -0.021631557
27831250000 -0.026660061 0.01040617 1.0070926 0.0043353569 1.0007015 0.0066565061 0.018379098 -0.019749748
27850000000 -0.025384828 0.011841348 1.0078387 0.0054734433 1.0009671 0.0071641798 0.017725103 -0.017973218
27868750000 -0.025479779 0.013619717 1.0078796 0.0040343362 1.0022084 0.007129027 0.016031392 -0.017445868
27887500000 -0.026090894 0.014686001 1.0070074 0.0049123019 1.0012436 0.0057635405 0.013410407 -0.017494349
27906250000 -0.026911089 0.014610607 1.0077126 0.0045596454 1.0011201 0.0073772636 0.011103592 -0.018273333
27925000000 -0.027205259 0.015050148 1.0071371 0.0043629883 1.0027781 0.0065468815 0.0086054876 -0.019945316
27943750000 -0.027576894 0.01572817 1.0075079 0.0039930493 1.0005443 0.0067432467 0.0071187168 -0.021800926
27962500000 -0.028455412 0.017313238 1.0065753 0.0041374918 1.0013918 0.0090278788 0.0071167829 -0.02408655
27981250000 -0.029560419 0.017830543 1.0081521 0.0056084134 1.002116 0.0075589791 0.0082267104 -0.02658068
28000000000 -0.031103978 0.016665082 1.0090262 0.0036265159 1.0015546 0.0076404959 0.011036488 -0.028660573
28018750000 -0.031737365 0.014818016 1.0072573 0.0042301142 1.0013212 0.0068549742 0.013279252 -0.029675225
28037500000 -0.030640339 0.012809408 1.0086855 0.0054506389 0.99984372 0.0090634078 0.015665501 -0.029366827
28056250000 -0.029145623 0.012526581 1.009253 0.003372208 1.0027256 0.0099425223 0.016443213 -0.02985771
28075000000 -0.027808757 0.013315902 1.0068483 0.0031532513 1.0023857 0.0065980097 0.015651345 -0.029286677
28093750000 -0.02742582 0.014415801 1.0069093 0.0057724393 1.000953 0.0076504508 0.015504567 -0.028872702
28112500000 -0.027951965 0.014164778 1.0096447 0.0046266466 1.0018334 0.0077255792 0.015612732 -0.029051403
28131250000 -0.028353447 0.013074403 1.0076092 0.0028848166 1.0011461 0.0090523884 0.015110511 -0.028714152
28150000000 -0.027440749 0.012002182 1.0076339 0.0045160824 1.0028861 0.0095516918 0.014313478 -0.028499398
28168750000 -0.026699042 0.01172217 1.007735 0.0032119965 1.0022587 0.0073810066 0.012938947 -0.029306356
28187500000 -0.02700186 0.012750641 1.006969 0.0052001579 1.0010633 0.0078839641 0.012937769 -0.030566297
28206250000 -0.028499918 0.012846883 1.009223 0.0045143878 1.0008337 0.0089466572 0.014740094 -0.032665588
28225000000 -0.030418837 0.011994593 1.0082399 0.003180729 1.0016346 0.010922854 0.017342836 -0.033923697
28243750000 -0.030224446 0.010271299 1.0077488 0.003392278 1.0033425 0.0092645017 0.019979578 -0.032847833
28262500000 -0.028552229 0.0084684873 1.0063728 0.0038685435 1.0007516 0.0080312742 0.021572944 -0.029754862
28281250000 -0.025819058 0.0086377608 1.0074527 0.0062088212 1.0019748 0.0095755784 0.021794926 -0.026263455
28300000000 -0.024246231 0.0098522399 1.009364 0.0042987405 1.0026145 0.007975528 0.019779721 -0.024514643
28318750000 -0.024527827 0.011558438 1.0075654 0.0031770901 1.001551 0.0093238512 0.017301558 -0.024220757
28337500000 -0.025253454 0.012003894 1.0067108 0.0034373445 1.0030553 0.0098588113 0.014390021 -0.02533214
28356250000 -0.025635317 0.011252953 1.0057646 0.0040527778 1.0032438 0.008945927 0.011866201 -0.026949825
28375000000 -0.025330443 0.010577525 1.0072386 0.0044504968 1.0023471 0.0075745219 0.010181203 -0.028522812
28393750000 -0.025171831 0.010866688 1.0076252 0.0033823049 1.0006479 0.0089874659 0.009132687 -0.029968247
