!Keysight Technologies,N5225A,MY55451607,A.10.47.03
!Date: Friday, May 31, 2024 10:04:01
!Correction: S11(Full 2 Port(1,2)) 
!S21(Full 2 Port(1,2)) 
!S12(Full 2 Port(1,2)) 
!S22(Full 2 Port(1,2)) 
!S2P File: Measurements: S11, S21, S12, S22:
# Hz S  RI   R 50
25000000000 0.0075138528 0.026809463 0.98352408 -0.0781703 0.98140109 -0.077804275 0.03359339 0.018240938
25018750000 0.009106773 0.028712215 0.98296607 -0.076965496 0.98111004 -0.078290924 0.028048307 0.01975002
25037500000 0.0089726215 0.030581361 0.98310935 -0.077834859 0.98008054 -0.077627301 0.024676921 0.015388587
25056250000 0.0077919075 0.031155361 0.9829042 -0.077588752 0.98061723 -0.076326132 0.027966451 0.010808945
25075000000 0.00758006 0.029976944 0.98429871 -0.07831157 0.98225826 -0.077793911 0.034548413 0.012004337
25093750000 0.0091601284 0.028963948 0.98247886 -0.07907328 0.9812969 -0.079038061 0.036583543 0.018199204
25112500000 0.01185963 0.029433018 0.98247766 -0.076539256 0.98167449 -0.078129001 0.03180977 0.022940157
25131250000 0.012622899 0.031224791 0.98405242 -0.077803075 0.98128539 -0.07824757 0.025668817 0.020988075
25150000000 0.010926827 0.032955993 0.98263919 -0.079276673 0.98122567 -0.076497793 0.024972197 0.015298485
25168750000 0.0083948718 0.032644469 0.98240972 -0.077961378 0.98274165 -0.07805384 0.030023945 0.013037287
25187500000 0.0076923706 0.030677535 0.98384011 -0.07804846 0.98119938 -0.079707734 0.034522958 0.017476613
25206250000 0.0095958915 0.028965669 0.98301828 -0.078403287 0.98175949 -0.07880567 0.033063736 0.023908554
25225000000 0.012283652 0.028775962 0.98327684 -0.076907739 0.98186976 -0.079066545 0.027007353 0.025460748
25243750000 0.013044532 0.029950762 0.98414814 -0.07888519 0.981646 -0.077248424 0.023423562 0.0213979
25262500000 0.011597794 0.030460706 0.98199749 -0.079376392 0.98349196 -0.078390457 0.025713235 0.016933136
25281250000 0.0099606691 0.029797062 0.98300451 -0.077418379 0.98165256 -0.080420956 0.030082412 0.018354351
25300000000 0.0099726878 0.028350627 0.98412412 -0.07852418 0.98167616 -0.079253547 0.03056046 0.023965893
25318750000 0.011693007 0.02809497 0.98329908 -0.078401871 0.9824909 -0.079254888 0.026413796 0.027393842
25337500000 0.013035745 0.029416734 0.98335916 -0.079013094 0.98261213 -0.078267127 0.022432366 0.025766199
25356250000 0.012195368 0.031196792 0.98204857 -0.079048596 0.98358846 -0.078748792 0.023785306 0.022002641
25375000000 0.010231986 0.031665251 0.98360848 -0.077929363 0.98226237 -0.080438226 0.02876691 0.022454275
25393750000 0.0092679011 0.030343952 0.98473018 -0.079155676 0.98157841 -0.080185398 0.031283192 0.028051041
25412500000 0.010609768 0.028791714 0.98353773 -0.079535261 0.98219115 -0.079341538 0.027835501 0.033621442
25431250000 0.013035802 0.028746132 0.98311466 -0.078809246 0.98348242 -0.078620084 0.021682542 0.034006119
25450000000 0.013999903 0.030460833 0.982629 -0.079140894 0.98407 -0.079969116 0.019280711 0.029672381
25468750000 0.012713569 0.032515023 0.9823938 -0.078660391 0.98216045 -0.081016779 0.022166297 0.026823251
25487500000 0.010811087 0.032623257 0.98438764 -0.078490511 0.98115987 -0.079949066 0.025613688 0.029494589
25506250000 0.010595035 0.030959124 0.98444605 -0.080834121 0.9830848 -0.079922996 0.025039034 0.034650739
25525000000 0.012341315 0.029562568 0.98177719 -0.080139235 0.98368329 -0.081185773 0.020167517 0.035474662
25543750000 0.014796571 0.030364132 0.98261464 -0.078660622 0.98284507 -0.08075802 0.017358223 0.031029873
25562500000 0.015321542 0.032987647 0.98309392 -0.080110505 0.98311877 -0.080233186 0.020718705 0.026478047
25581250000 0.013636775 0.035147164 0.98297769 -0.080333948 0.98267895 -0.081215233 0.026655469 0.028136769
25600000000 0.011817005 0.03487175 0.9830088 -0.080693386 0.98204619 -0.080754101 0.028165875 0.035619322
25618750000 0.012162886 0.032194611 0.98225594 -0.079872817 0.98369509 -0.080869921 0.022759313 0.041331168
25637500000 0.014654844 0.029826682 0.98302454 -0.079554953 0.98355055 -0.081686571 0.01565182 0.039275371
25656250000 0.017534744 0.030137036 0.98238283 -0.080275051 0.98279446 -0.081363313 0.014302548 0.032052983
25675000000 0.018711369 0.032891091 0.98270339 -0.079897247 0.98221606 -0.081238113 0.019271908 0.028159462
25693750000 0.017595783 0.035610046 0.98340708 -0.081311494 0.98250628 -0.080658428 0.02395536 0.031922795
25712500000 0.015469446 0.036070909 0.98182136 -0.081366703 0.98383397 -0.081484862 0.021817202 0.038329717
25731250000 0.014610236 0.034541346 0.98169935 -0.079344116 0.98347104 -0.081931032 0.014958828 0.039831109
25750000000 0.015196559 0.03322687 0.98322469 -0.080160603 0.98334426 -0.081643015 0.011452973 0.034508437
25768750000 0.016004864 0.034472276 0.98202115 -0.081812836 0.98210198 -0.081736624 0.015600397 0.029047299
25787500000 0.015780689 0.037614651 0.98176509 -0.08081238 0.98236597 -0.080612414 0.022730578 0.031177405
25806250000 0.013970125 0.039589167 0.98284358 -0.081579715 0.98401129 -0.081860676 0.024532018 0.039593607
25825000000 0.012047996 0.038704466 0.98160934 -0.081437103 0.98320109 -0.083146945 0.018173125 0.045417551
25843750000 0.01222009 0.035532605 0.98237395 -0.080065876 0.98267472 -0.081818603 0.010194038 0.043213047
25862500000 0.014373381 0.033314466 0.98286724 -0.081551343 0.98327565 -0.081668742 0.0086484486 0.036032032
25881250000 0.016567688 0.034302182 0.98153818 -0.081596859 0.98311871 -0.082177617 0.013451833 0.032701716
25900000000 0.016630087 0.037314262 0.98233485 -0.080882445 0.9827773 -0.082760058 0.017191315 0.036669429
25918750000 0.014173063 0.038954109 0.98259479 -0.0813853 0.9828651 -0.082611769 0.014148607 0.042219613
25937500000 0.011649831 0.037372597 0.98230428 -0.081408113 0.98351711 -0.082457133 0.0073347054 0.041758113
25956250000 0.011705267 0.034380157 0.98198837 -0.081688672 0.98289335 -0.083203077 0.0050691282 0.034896031
25975000000 0.014447381 0.033626553 0.9819532 -0.081664577 0.98204637 -0.082416423 0.010502132 0.029264316
25993750000 0.016783038 0.036444869 0.98267496 -0.082339175 0.98321027 -0.082104683 0.017734384 0.031723451
26012500000 0.015870355 0.040083192 0.98223567 -0.082819216 0.98390865 -0.083704934 0.018521618 0.039548595
26031250000 0.012593602 0.040517479 0.98178953 -0.081608318 0.98283505 -0.083895735 0.011557636 0.0443969
26050000000 0.01031182 0.036193646 0.98290175 -0.081379458 0.9827553 -0.082604051 0.0044595832 0.041636493
26068750000 0.011723285 0.031229649 0.98254365 -0.082937479 0.98342133 -0.082815617 0.0046901233 0.035774741
26087500000 0.015919041 0.030035486 0.98134977 -0.082524136 0.98328137 -0.083457157 0.010193702 0.034948435
26106250000 0.018955857 0.033112381 0.98237538 -0.082104035 0.98340601 -0.083831318 0.013171953 0.040753596
26125000000 0.017792962 0.036945939 0.98191833 -0.082532167 0.98315972 -0.083826408 0.0089399461 0.046205271
26143750000 0.014038333 0.037351586 0.98196995 -0.08197017 0.98333377 -0.083316095 0.002246618 0.045017458
26162500000 0.011732176 0.034090731 0.98228389 -0.082798786 0.98327994 -0.083642289 0.0012641927 0.039255507
26181250000 0.013275469 0.031136265 0.98139775 -0.082767107 0.98319751 -0.083582066 0.0072121168 0.037003376
26200000000 0.016942246 0.031586729 0.98208749 -0.082550853 0.98384565 -0.084541179 0.012658479 0.042592794
26218750000 0.018573239 0.034777999 0.98213595 -0.082982361 0.98317128 -0.084864765 0.010228717 0.05050886
26237500000 0.017065566 0.037171394 0.98190695 -0.082367428 0.98344541 -0.08362177 0.0016223341 0.052004229
26256250000 0.014201174 0.035843026 0.98225522 -0.082704432 0.98364699 -0.083993584 -0.0038346429 0.045418024
26275000000 0.013545739 0.032799587 0.98149079 -0.083190098 0.98273247 -0.084047265 -0.00054980029 0.038503021
26293750000 0.016261948 0.031498309 0.98150116 -0.082849309 0.98315823 -0.084409788 0.0065721194 0.039656866
26312500000 0.019310402 0.033813376 0.98233616 -0.083014704 0.98312157 -0.08543919 0.0080319569 0.047321253
26331250000 0.019607978 0.037860524 0.98179877 -0.082975097 0.9827826 -0.084755182 0.0011343827 0.052019801
26350000000 0.016868219 0.039579827 0.98201853 -0.082579203 0.98360711 -0.084037483 -0.0066718971 0.048034824
26368750000 0.013983316 0.037773967 0.98186249 -0.083263353 0.98344541 -0.084507182 -0.0064551593 0.040048398
26387500000 0.013929627 0.035376262 0.98081321 -0.083275735 0.98276258 -0.084904231 0.0010007218 0.037714135
26406250000 0.016952418 0.035208169 0.9819681 -0.082597755 0.98290223 -0.085159376 0.0059566456 0.044188496
26425000000 0.019209864 0.038006693 0.98240435 -0.083784692 0.98298162 -0.08501412 0.0021119423 0.051612999
26443750000 0.018339092 0.0414294 0.9816888 -0.083648555 0.98349065 -0.084603466 -0.0064260988 0.051041912
26462500000 0.015324728 0.042065881 0.98160583 -0.083241343 0.9832682 -0.084740229 -0.0095190918 0.043002583
26481250000 0.01277764 0.039759137 0.98154217 -0.083648674 0.98246294 -0.084740989 -0.0033156942 0.03718482
26500000000 0.013301517 0.037538927 0.98173434 -0.083949186 0.98264033 -0.085208133 0.004724551 0.041259568
26518750000 0.016091252 0.037903748 0.98191088 -0.084247857 0.9824819 -0.086072639 0.0044498136 0.05113633
26537500000 0.017884072 0.0404476 0.98192036 -0.083707117 0.9829973 -0.085368156 -0.0043992135 0.055733316
26556250000 0.016540917 0.042756669 0.98187065 -0.083430625 0.9836207 -0.085368209 -0.012683249 0.050242998
26575000000 0.01334805 0.042293552 0.98152947 -0.083570659 0.98300624 -0.085323535 -0.012166054 0.041083675
26593750000 0.011770113 0.039667338 0.98149556 -0.083485126 0.98263431 -0.085072979 -0.0052269646 0.038353547
26612500000 0.012898979 0.037611898 0.98186719 -0.084054552 0.98268539 -0.085850731 -0.0016581092 0.044157524
26631250000 0.01559348 0.038427055 0.98170608 -0.08422175 0.98283213 -0.085614219 -0.0061198482 0.050102241
26650000000 0.016694317 0.04143057 0.98172247 -0.08394444 0.98323745 -0.085402712 -0.013878296 0.04821055
26668750000 0.014878612 0.043787707 0.98171616 -0.083877653 0.98286164 -0.08530917 -0.015464136 0.040668532
26687500000 0.01121067 0.043940902 0.98120725 -0.084125161 0.98234278 -0.085149221 -0.0092285154 0.036341216
26706250000 0.009348046 0.041911613 0.98136848 -0.084360041 0.98225838 -0.085753962 -0.0033840141 0.040693689
26725000000 0.010175711 0.039538871 0.98182118 -0.08478152 0.98250639 -0.086268879 -0.0056367642 0.048317604
26743750000 0.012726996 0.039185598 0.98183024 -0.084685981 0.98309243 -0.086174585 -0.014304312 0.049717903
26762500000 0.014471563 0.040440265 0.98180056 -0.084511057 0.98304838 -0.086198106 -0.019921008 0.043026801
26781250000 0.013342506 0.041578628 0.98144436 -0.084339336 0.9827913 -0.085552312 -0.016741255 0.035396673
26800000000 0.010962822 0.04132444 0.98145396 -0.084621578 0.98253846 -0.085637897 -0.0094693396 0.035711478
26818750000 0.0098892376 0.03930632 0.981502 -0.084996879 0.9823041 -0.08615531 -0.0072384942 0.042476319
26837500000 0.011461191 0.036876447 0.98182732 -0.084839568 0.98283857 -0.086320356 -0.012700375 0.046852782
26856250000 0.014406824 0.0364387 0.98178631 -0.084679902 0.98284733 -0.086059771 -0.018652 0.043231584
26875000000 0.016155493 0.038045026 0.98183733 -0.084328525 0.98295653 -0.085767992 -0.017543586 0.035939299
26893750000 0.01539666 0.040448517 0.9817434 -0.084537596 0.982539 -0.085794605 -0.009948981 0.034112457
26912500000 0.013510468 0.041519675 0.98145914 -0.085275464 0.98216057 -0.08611618 -0.00511433 0.040743425
26931250000 0.012587917 0.040887706 0.9815917 -0.084858395 0.98245293 -0.086412825 -0.0092289913 0.048813205
26950000000 0.014270609 0.039633933 0.98204929 -0.085160144 0.98274344 -0.086412445 -0.018391561 0.049659066
26968750000 0.016613025 0.039458293 0.9815014 -0.085328698 0.98308516 -0.086251915 -0.023504604 0.042988908
26987500000 0.017009718 0.040500216 0.98159122 -0.08475364 0.98298508 -0.086062267 -0.020094803 0.037102465
27006250000 0.015219285 0.041426063 0.98169661 -0.085192785 0.98245072 -0.086014017 -0.014673154 0.03872728
27025000000 0.013227273 0.04021192 0.98158532 -0.085248649 0.98248535 -0.086546332 -0.015260237 0.044972841
27043750000 0.013371182 0.037537001 0.98194593 -0.085062318 0.98241794 -0.086884186 -0.022168422 0.046675067
27062500000 0.016023073 0.035865717 0.98183018 -0.085181549 0.9826929 -0.085992441 -0.027597407 0.040580425
27081250000 0.01841067 0.037239116 0.98181063 -0.084981509 0.98282498 -0.086562492 -0.024754917 0.033233471
27100000000 0.017798202 0.040871941 0.98151672 -0.085314602 0.9817965 -0.086620294 -0.016956056 0.033240538
27118750000 0.01434218 0.043827955 0.98130709 -0.085247949 0.98161459 -0.086493224 -0.013616512 0.041930962
27137500000 0.011081607 0.043237276 0.98227578 -0.085535854 0.98198062 -0.0875239 -0.019043518 0.04949506
27156250000 0.011118861 0.039872512 0.98229367 -0.086303093 0.98249066 -0.087608024 -0.028178515 0.047923777
27175000000 0.014222219 0.0369232 0.98125172 -0.085316457 0.98293239 -0.087312706 -0.031084964 0.039493654
27193750000 0.017488986 0.037369229 0.98214293 -0.084858716 0.98239279 -0.086985022 -0.025758024 0.033805348
27212500000 0.018334175 0.040424954 0.98171437 -0.08597745 0.98220181 -0.086618774 -0.019611157 0.036721583
27231250000 0.016271044 0.042575136 0.98136568 -0.085570738 0.98201966 -0.087298743 -0.021077672 0.043865867
27250000000 0.014348981 0.041909631 0.98279279 -0.086010344 0.98220921 -0.087706119 -0.029564036 0.045831293
27268750000 0.014735249 0.038874313 0.98148072 -0.086644314 0.9827584 -0.087727591 -0.035970394 0.03925376
27287500000 0.016954428 0.037149217 0.98142916 -0.084882729 0.98231918 -0.087504596 -0.033335693 0.031082621
27306250000 0.018762717 0.03883674 0.98238242 -0.085780442 0.98177624 -0.086930335 -0.025115697 0.030545527
27325000000 0.018010369 0.042518437 0.98127896 -0.086487658 0.98160708 -0.087088175 -0.020675356 0.037821274
27343750000 0.015396644 0.044766515 0.98160022 -0.086056307 0.98184782 -0.08825136 -0.025324544 0.045391675
27362500000 0.013437195 0.043901704 0.98196024 -0.086230315 0.98185891 -0.088681772 -0.03367532 0.044851169
27381250000 0.013887088 0.041235007 0.98268944 -0.08584027 0.98259717 -0.088207573 -0.037155524 0.037892435
27400000000 0.015738498 0.04052674 0.98244756 -0.086660773 0.98178554 -0.088290371 -0.032982897 0.033259578
27418750000 0.016540842 0.042446595 0.98132169 -0.086276338 0.98152459 -0.086932808 -0.028137311 0.036288865
27437500000 0.015071655 0.04495484 0.98231673 -0.086176217 0.98233986 -0.088096038 -0.029533857 0.042488463
27456250000 0.012867435 0.04485387 0.98239142 -0.087343849 0.98161793 -0.089379996 -0.036586184 0.043764658
27475000000 0.012051289 0.041896403 0.98168045 -0.086513042 0.98188305 -0.088424996 -0.041326202 0.03727166
27493750000 0.013649238 0.039616458 0.98298329 -0.085617363 0.98183233 -0.088431731 -0.037763909 0.029786341
27512500000 0.01596614 0.04102527 0.98249817 -0.087140024 0.98198962 -0.087612577 -0.029796273 0.029190831
27531250000 0.015853047 0.045179598 0.98121572 -0.086298309 0.98222876 -0.089160785 -0.026263077 0.035815407
27550000000 0.013601942 0.048198119 0.98345727 -0.086296372 0.97979182 -0.089848377 -0.031084215 0.041643336
27568750000 0.010977825 0.046862394 0.98277187 -0.088715553 0.98138905 -0.08867 -0.038583662 0.039263401
27587500000 0.01089118 0.043374076 0.98171329 -0.087066233 0.98221594 -0.090270132 -0.040231261 0.031325601
27606250000 0.013319229 0.041966692 0.98271447 -0.087180093 0.98070037 -0.088580519 -0.034563813 0.026845267
27625000000 0.015380551 0.044285364 0.98163259 -0.086870357 0.98210323 -0.087991245 -0.02890306 0.030472213
27643750000 0.014793932 0.048180189 0.98315299 -0.086825341 0.98090363 -0.08965981 -0.030946752 0.037068177
27662500000 0.012426009 0.048902977 0.98263878 -0.088968851 0.98011166 -0.089654274 -0.038669974 0.038038403
27681250000 0.01111312 0.045662776 0.9814831 -0.087388918 0.9805823 -0.08991529 -0.043743558 0.031394538
27700000000 0.012685374 0.042234879 0.98266357 -0.08677312 0.98092115 -0.088837884 -0.040427979 0.024174867
27718750000 0.015309729 0.042351186 0.98235381 -0.087340541 0.98122287 -0.088948086 -0.033093385 0.024557116
27737500000 0.016348384 0.0457821 0.98257345 -0.087445945 0.98035002 -0.089479759 -0.030854428 0.031663213
27756250000 0.014456443 0.048586953 0.98247296 -0.088528179 0.97945517 -0.090455957 -0.036508761 0.03684013
27775000000 0.011905901 0.047520194 0.98139596 -0.088679723 0.97883505 -0.089792438 -0.043472592 0.033738397
27793750000 0.011464142 0.043838643 0.98183584 -0.086778268 0.98116899 -0.089100085 -0.043827306 0.026105402
27812500000 0.013837427 0.041161899 0.98371673 -0.087592423 0.98107511 -0.090315185 -0.037800942 0.023074584
27831250000 0.016608369 0.042086441 0.9818933 -0.088823475 0.97944927 -0.090016812 -0.03355056 0.028164197
27850000000 0.017411431 0.044917416 0.98281646 -0.087680683 0.97844052 -0.090036683 -0.037928831 0.034847271
27868750000 0.01583229 0.045607898 0.98307699 -0.089669339 0.97869164 -0.089345343 -0.047177084 0.033795644
27887500000 0.014382214 0.043235444 0.98159373 -0.088503614 0.98054278 -0.090787917 -0.052114502 0.025165649
27906250000 0.015103153 0.04003932 0.98321706 -0.08801958 0.97909379 -0.090502411 -0.047541801 0.017850582
27925000000 0.017178925 0.03913983 0.98253661 -0.088427491 0.98032087 -0.08870697 -0.04020711 0.01917321
27943750000 0.018842895 0.041165337 0.98285758 -0.088850103 0.97953218 -0.090928279 -0.039257824 0.027157299
27962500000 0.018207412 0.043574575 0.98135883 -0.089737184 0.97761005 -0.090329237 -0.046018898 0.031771667
27981250000 0.016754176 0.044205096 0.98174751 -0.087159306 0.97960746 -0.090270087 -0.053099945 0.028107656
28000000000 0.016715569 0.042674579 0.98433405 -0.088706002 0.9799518 -0.090790987 -0.052259695 0.020471405
28018750000 0.018144064 0.041782666 0.98191398 -0.089695834 0.98056006 -0.090682909 -0.045691505 0.018231634
28037500000 0.019846896 0.043289807 0.98241502 -0.087757044 0.97748315 -0.091377005 -0.042026214 0.023877993
28056250000 0.019960636 0.045392126 0.98411524 -0.089740992 0.97674221 -0.087938525 -0.046464801 0.029353028
28075000000 0.018121665 0.045996923 0.98185545 -0.091181219 0.97983277 -0.090154916 -0.054889571 0.027168978
28093750000 0.016624216 0.043794461 0.98048282 -0.08842124 0.97847205 -0.092030272 -0.05744499 0.018892119
28112500000 0.017610664 0.041390594 0.98389274 -0.087497786 0.97865814 -0.091005847 -0.051785387 0.013640691
28131250000 0.020231269 0.04071648 0.983253 -0.090436012 0.97738904 -0.091094613 -0.045072697 0.017032808
28150000000 0.022322873 0.04353926 0.98224682 -0.088988408 0.9767735 -0.08845906 -0.046165463 0.024290344
28168750000 0.02196531 0.046677038 0.98338884 -0.090372123 0.97843379 -0.090219937 -0.053637434 0.026082447
28187500000 0.019004101 0.047889635 0.98150605 -0.089164712 0.97788578 -0.092355192 -0.058633916 0.019726252
28206250000 0.015911626 0.047132641 0.98402411 -0.087835044 0.97774398 -0.092235267 -0.05496091 0.013536892
28225000000 0.014189385 0.045491945 0.98388392 -0.089844853 0.9764728 -0.09010981 -0.047083724 0.015496096
28243750000 0.014112962 0.045375232 0.98313695 -0.090403855 0.97825593 -0.088111661 -0.045843907 0.024144368
28262500000 0.01506616 0.046303399 0.98146397 -0.091273047 0.97762448 -0.09128385 -0.053894207 0.029968169
28281250000 0.01559512 0.04681268 0.98152459 -0.088018373 0.97565645 -0.090425655 -0.063190326 0.025233211
28300000000 0.015241853 0.046140574 0.98553813 -0.08898776 0.97837561 -0.090868391 -0.063886464 0.014781151
28318750000 0.014416959 0.044718582 0.98418647 -0.091330804 0.97687393 -0.091557115 -0.055823613 0.00983667
28337500000 0.013336111 0.044233289 0.98305362 -0.091261208 0.97648793 -0.089073651 -0.049163692 0.014431814
28356250000 0.013072129 0.044509254 0.98138827 -0.0911448 0.97703391 -0.088824533 -0.051608659 0.022104112
28375000000 0.013164897 0.045226436 0.98239756 -0.089278556 0.97789097 -0.090946048 -0.060371079 0.022724021
28393750000 0.013902905 0.045326237 0.98436582 -0.089886069 0.97613835 -0.093636192 -0.065008819 0.015460762
