!Keysight Technologies,N5225A,MY55451607,A.10.47.03
!Date: Friday, May 31, 2024 11:16:14
!Correction: S11(Full 2 Port(1,2)) 
!S21(Full 2 Port(1,2)) 
!S12(Full 2 Port(1,2)) 
!S22(Full 2 Port(1,2)) 
!S2P File: Measurements: S11, S21, S12, S22:
# Hz S  RI   R 50
25000000000 -0.18067008 -0.37610996 0.022659218 -0.022127973 0.02341025 -0.020871341 -0.12931299 -0.41565973
25018750000 -0.18988292 -0.36071619 0.019551653 -0.024104122 0.020691246 -0.023604285 -0.14235252 -0.40039623
25037500000 -0.19701509 -0.34037274 0.017448049 -0.025655458 0.018505866 -0.025241163 -0.15041992 -0.38599321
25056250000 -0.20341489 -0.31634796 0.015628178 -0.027804958 0.016961459 -0.027689384 -0.15492657 -0.36986378
25075000000 -0.2119911 -0.29528794 0.012255853 -0.030091643 0.013491035 -0.030447258 -0.15863539 -0.34900111
25093750000 -0.22131054 -0.27667451 0.0088701798 -0.02976645 0.0099804802 -0.030249363 -0.16293019 -0.32867935
25112500000 -0.22479142 -0.26112553 0.0071259686 -0.030189821 0.0081572188 -0.031579413 -0.16901508 -0.31080732
25131250000 -0.22184929 -0.24742007 0.0036818618 -0.031477038 0.0039239912 -0.032698479 -0.17177339 -0.29499757
25150000000 -0.21595468 -0.22878322 0.0010742808 -0.029962182 0.0011779089 -0.03117916 -0.17042354 -0.28063554
25168750000 -0.2108537 -0.20623428 -0.00046442685 -0.030046573 -0.00074862869 -0.031490814 -0.16776592 -0.26485297
25187500000 -0.21051727 -0.18496859 -0.0032107024 -0.030644292 -0.0039069294 -0.031365827 -0.16517952 -0.2474678
25206250000 -0.21195638 -0.16905956 -0.005642321 -0.028812004 -0.0062957928 -0.029226998 -0.1641134 -0.22963296
25225000000 -0.21140119 -0.15842173 -0.0066860705 -0.028731942 -0.0072129467 -0.028900729 -0.16303702 -0.21633753
25243750000 -0.20363109 -0.15136068 -0.009448952 -0.028647577 -0.0096435202 -0.028918589 -0.16338259 -0.20665787
25262500000 -0.1934018 -0.14377387 -0.012288355 -0.026218588 -0.012868039 -0.02677956 -0.15848157 -0.19693649
25281250000 -0.18274885 -0.13117515 -0.012911703 -0.024520306 -0.013691325 -0.024481719 -0.15060633 -0.18805508
25300000000 -0.17459889 -0.1180005 -0.01355692 -0.024354542 -0.014041292 -0.024023248 -0.14264137 -0.17867146
25318750000 -0.16822974 -0.10917071 -0.01604923 -0.023135258 -0.016379733 -0.022861432 -0.13605234 -0.1667219
25337500000 -0.16433659 -0.10335562 -0.017134378 -0.020821936 -0.017497715 -0.020306323 -0.12963557 -0.15779246
25356250000 -0.15526503 -0.097392 -0.017427636 -0.019604931 -0.017100813 -0.019068539 -0.12350518 -0.15206027
25375000000 -0.14525791 -0.094847873 -0.019263078 -0.019144056 -0.019051289 -0.018737281 -0.11475469 -0.14746542
25393750000 -0.13862957 -0.08873187 -0.019745637 -0.015684631 -0.019480567 -0.01563766 -0.10436747 -0.14061113
25412500000 -0.12911114 -0.083715275 -0.019300614 -0.014785757 -0.018992182 -0.01501946 -0.096336648 -0.13368505
25431250000 -0.12149869 -0.084038891 -0.020393919 -0.013920873 -0.020446803 -0.014425368 -0.092654429 -0.12742582
25450000000 -0.11376108 -0.083101042 -0.020683903 -0.011075129 -0.021108594 -0.011209032 -0.088252664 -0.12428207
25468750000 -0.10404368 -0.080621518 -0.018877672 -0.01062822 -0.019064646 -0.010409194 -0.08220917 -0.12298125
25487500000 -0.094671339 -0.078283399 -0.019512892 -0.010504128 -0.019433301 -0.010399454 -0.074615322 -0.12085073
25506250000 -0.091685027 -0.074575171 -0.020125054 -0.008289787 -0.019977603 -0.0082368813 -0.066743508 -0.11359414
25525000000 -0.089895613 -0.073044658 -0.018526716 -0.0078760451 -0.01840538 -0.0075315959 -0.06194704 -0.10639185
25543750000 -0.088325322 -0.076034382 -0.018370517 -0.007937246 -0.017759126 -0.0079326136 -0.06054217 -0.10207899
25562500000 -0.083441772 -0.080826409 -0.019078339 -0.0077003743 -0.018527364 -0.0081698075 -0.057059966 -0.10139253
25581250000 -0.077658847 -0.082100861 -0.017761432 -0.0061264038 -0.017665749 -0.006515217 -0.047930442 -0.10243309
25600000000 -0.070328549 -0.079093747 -0.018169722 -0.0084592244 -0.017973557 -0.0093120318 -0.039991673 -0.09809754
25618750000 -0.06619864 -0.077028625 -0.01966974 -0.0074082892 -0.020008255 -0.0081701316 -0.033953551 -0.088584296
25637500000 -0.06771341 -0.073325366 -0.01992978 -0.0062717502 -0.020471795 -0.0069622244 -0.033847686 -0.082833707
25656250000 -0.066899359 -0.070183247 -0.020136463 -0.0067785173 -0.020982375 -0.0072020693 -0.034477256 -0.082757197
25675000000 -0.064559005 -0.071681321 -0.021389447 -0.0067369174 -0.022286808 -0.0065931692 -0.032956973 -0.08344543
25693750000 -0.061795175 -0.074191034 -0.022325817 -0.0053542652 -0.023165893 -0.0050767763 -0.026125006 -0.080798216
25712500000 -0.057255909 -0.071334265 -0.022984171 -0.0052494169 -0.023272218 -0.0044849445 -0.021287782 -0.077582024
25731250000 -0.052407004 -0.073187985 -0.024540333 -0.0034957824 -0.024733713 -0.0033204707 -0.021339964 -0.07119678
25750000000 -0.050156243 -0.072578207 -0.025131615 -0.0024148086 -0.025264101 -0.0019491151 -0.020435214 -0.071855143
25768750000 -0.045999378 -0.070501097 -0.025667798 -0.0013631006 -0.025693448 -0.00079013052 -0.017113667 -0.075774617
25787500000 -0.041516833 -0.071021058 -0.026649676 6.5774999e-005 -0.02657689 0.00062506204 -0.0081166467 -0.075836509
25806250000 -0.037480038 -0.068715826 -0.027308891 0.0023376239 -0.027039232 0.002847231 0.0028190969 -0.070460588
25825000000 -0.03523472 -0.065736331 -0.027136434 0.0031465848 -0.02653202 0.0036015785 0.0083633568 -0.062515251
25843750000 -0.031298101 -0.059934683 -0.028395824 0.0057515251 -0.027576761 0.0055989036 0.0087786391 -0.056014881
25862500000 -0.029042291 -0.058622874 -0.027281197 0.0072157355 -0.02668836 0.0070179724 0.012263902 -0.055643551
25881250000 -0.026505303 -0.057917293 -0.027492052 0.0080641611 -0.027026359 0.0075686341 0.018305039 -0.058036223
25900000000 -0.020827098 -0.05640424 -0.027580082 0.0099908737 -0.027391706 0.0092483172 0.029553061 -0.054538351
25918750000 -0.013236587 -0.052328907 -0.02736911 0.012306125 -0.027639017 0.01154264 0.039920222 -0.049609594
25937500000 -0.0076027326 -0.048637066 -0.026739124 0.012793729 -0.027071808 0.012276758 0.045807321 -0.04459006
25956250000 -0.0051380582 -0.043797322 -0.027293209 0.014014198 -0.027785227 0.013609639 0.049742904 -0.043485235
25975000000 0.00052408577 -0.043515027 -0.027793303 0.016997216 -0.02830584 0.016697858 0.057664268 -0.046455719
25993750000 0.0055246055 -0.046497349 -0.027292386 0.018585294 -0.02804797 0.018795451 0.070617557 -0.049976341
26012500000 0.01616849 -0.046754897 -0.027439065 0.020829152 -0.027819494 0.021297229 0.082892567 -0.049143791
26031250000 0.029985702 -0.046170175 -0.0269248 0.024099626 -0.026996098 0.02448613 0.092509687 -0.044563212
26050000000 0.037680805 -0.044512473 -0.025942523 0.026759455 -0.025966115 0.026747396 0.097962052 -0.045045834
26068750000 0.045517355 -0.042951073 -0.02455923 0.029356996 -0.024538059 0.029689796 0.10061726 -0.049492892
26087500000 0.054403447 -0.047451302 -0.023533793 0.031945609 -0.02312574 0.032085754 0.10733948 -0.056983523
26106250000 0.062704578 -0.054490615 -0.020811729 0.035558652 -0.021032542 0.035231609 0.11858398 -0.064456902
26125000000 0.075618766 -0.056914125 -0.017183172 0.037853479 -0.017128948 0.037995338 0.12854043 -0.07001403
26143750000 0.086524233 -0.060054474 -0.015509717 0.039190128 -0.015347863 0.039059155 0.13740258 -0.071759403
26162500000 0.093510531 -0.065814525 -0.012298187 0.041718669 -0.012501515 0.041529667 0.14421386 -0.075282387
26181250000 0.097836137 -0.072643943 -0.0080168843 0.043194078 -0.0081474287 0.043067385 0.14992903 -0.083296433
26200000000 0.10668021 -0.083406121 -0.0047923476 0.044054471 -0.0052869129 0.04391494 0.15665595 -0.093193159
26218750000 0.11686422 -0.094960541 -0.00051293417 0.044575155 -0.0013006571 0.044822723 0.16875482 -0.10217222
26237500000 0.12678213 -0.10337737 0.002994203 0.044357579 0.002143966 0.044988904 0.17856239 -0.11188797
26256250000 0.13297428 -0.10994925 0.0061264378 0.044332031 0.0054085492 0.045061659 0.18714164 -0.1183627
26275000000 0.13731018 -0.11785109 0.0089681307 0.044247687 0.0084949424 0.045156457 0.19602706 -0.12589082
26293750000 0.14055182 -0.13052237 0.012623113 0.044027645 0.012754636 0.044819206 0.20213015 -0.13590546
26312500000 0.14637142 -0.14401795 0.016278628 0.042720683 0.016660511 0.043270301 0.20715567 -0.14544633
26331250000 0.15280987 -0.15686104 0.018070389 0.042142853 0.018449074 0.042554833 0.21185131 -0.15456633
26350000000 0.15566656 -0.1664145 0.0217009 0.041424658 0.022174694 0.041923333 0.21596424 -0.165971
26368750000 0.15783997 -0.17464547 0.025355496 0.04007785 0.02614302 0.040435303 0.21822053 -0.17713641
26387500000 0.15656893 -0.18688412 0.028025795 0.038850754 0.028570823 0.038302343 0.22104432 -0.18833113
26406250000 0.15379182 -0.20154616 0.031647503 0.037718892 0.031224323 0.037488002 0.22534941 -0.19910119
26425000000 0.15319888 -0.21672609 0.034942284 0.035349749 0.035275601 0.035436161 0.22620937 -0.20843291
26443750000 0.1546295 -0.23307244 0.036935609 0.033371713 0.037324652 0.032998193 0.22592038 -0.21778506
26462500000 0.15567082 -0.24614857 0.040369123 0.032332484 0.039927088 0.031802434 0.22352269 -0.22854222
26481250000 0.15623675 -0.25506571 0.044538945 0.028601646 0.044176985 0.028596085 0.22131525 -0.24207419
26500000000 0.15333843 -0.26416218 0.045914553 0.024990698 0.045801565 0.025439311 0.2203436 -0.25508434
26518750000 0.14508252 -0.27468041 0.048331294 0.023241974 0.048522267 0.023356907 0.21986252 -0.26400313
26537500000 0.13656926 -0.28565192 0.051128112 0.019317938 0.051421501 0.019095229 0.21721487 -0.27074429
26556250000 0.13089193 -0.2997736 0.053377286 0.015378342 0.053418923 0.015289512 0.21011961 -0.27869084
26575000000 0.12683758 -0.31252423 0.055360775 0.011742404 0.0555006 0.011844506 0.20245782 -0.29009509
26593750000 0.12187463 -0.31986532 0.057184603 0.0071816542 0.057365157 0.0070001362 0.19553436 -0.30313918
26612500000 0.11466625 -0.32684937 0.057798758 0.0029702452 0.058440506 0.0027707592 0.19381586 -0.31418663
26631250000 0.10455791 -0.33607814 0.058955405 -0.00057122333 0.059535034 -0.0015452107 0.19240707 -0.32154447
26650000000 0.096556358 -0.34669828 0.059930339 -0.0063740085 0.059537735 -0.0069769938 0.18700637 -0.32590443
26668750000 0.094211839 -0.35649753 0.059129495 -0.011071282 0.05997305 -0.011054924 0.17847785 -0.33204645
26687500000 0.091305114 -0.36025932 0.05891306 -0.015426494 0.059341531 -0.016982686 0.17105757 -0.34108755
26706250000 0.08374539 -0.35924053 0.058170874 -0.02055618 0.057675559 -0.020992193 0.16635022 -0.35015979
26725000000 0.071820587 -0.35959354 0.057087902 -0.024409045 0.05743264 -0.025353787 0.16309737 -0.35607016
26743750000 0.058011007 -0.36744121 0.056002852 -0.029279992 0.055387601 -0.030307502 0.1595246 -0.35776487
26762500000 0.047330853 -0.37927195 0.053697571 -0.034503449 0.053568728 -0.034882378 0.15110108 -0.35889068
26781250000 0.045167036 -0.38807133 0.051495403 -0.037378505 0.051097896 -0.038689535 0.13946128 -0.3626112
26800000000 0.043209892 -0.39197421 0.049452893 -0.042831611 0.048323523 -0.043320928 0.13090649 -0.36899433
26818750000 0.037199561 -0.3911857 0.04576014 -0.046646733 0.045075905 -0.046923455 0.12393016 -0.37611532
26837500000 0.025417309 -0.39367664 0.043802835 -0.050263133 0.043021608 -0.05097758 0.11857088 -0.38089883
26856250000 0.01304375 -0.40190241 0.039304238 -0.054614313 0.038282927 -0.054842748 0.11179378 -0.3839632
26875000000 0.0057863509 -0.41209453 0.03520596 -0.057257161 0.034770068 -0.056879066 0.10675433 -0.38822946
26893750000 0.0030692627 -0.41863599 0.031857852 -0.061600346 0.031691696 -0.061229043 0.10061866 -0.39402077
26912500000 0.00054331467 -0.42214164 0.025625775 -0.064973451 0.025720805 -0.064520307 0.096471809 -0.39645639
26931250000 -0.0067578745 -0.42130342 0.021136146 -0.065123767 0.020717861 -0.065106183 0.094772592 -0.39926296
26950000000 -0.016228141 -0.42301345 0.016724708 -0.069098823 0.016850267 -0.068206795 0.088946596 -0.40047398
26968750000 -0.026687825 -0.42883307 0.010020622 -0.069692336 0.011048384 -0.070385367 0.082330652 -0.40192798
26987500000 -0.033984985 -0.43581462 0.0051740441 -0.0702198 0.0045470973 -0.071089894 0.07669656 -0.4054364
27006250000 -0.039647378 -0.43888849 -0.0010710456 -0.070564151 -0.00082517945 -0.070320569 0.071844682 -0.41173431
27025000000 -0.046886317 -0.44112661 -0.0060173622 -0.070556432 -0.0062716492 -0.071797393 0.068772972 -0.41601509
27043750000 -0.057495248 -0.44364825 -0.011807814 -0.070751347 -0.013672667 -0.070052244 0.064481221 -0.41912705
27062500000 -0.069036052 -0.44897005 -0.017346082 -0.068314679 -0.017042147 -0.067332938 0.061667576 -0.4234941
27081250000 -0.080545336 -0.45636794 -0.021607019 -0.067991346 -0.022356424 -0.068765976 0.056535225 -0.42908171
27100000000 -0.087540887 -0.46318167 -0.028503992 -0.064825125 -0.029723143 -0.063968904 0.052286573 -0.43423823
27118750000 -0.093345702 -0.46850577 -0.03157635 -0.061901044 -0.031436116 -0.060772728 0.050412301 -0.4399274
27137500000 -0.10027417 -0.46966702 -0.036667023 -0.061285377 -0.036008243 -0.059877858 0.045801926 -0.44428658
27156250000 -0.110107 -0.46952775 -0.042581648 -0.056903213 -0.040883817 -0.056076486 0.041302007 -0.44676551
27175000000 -0.12304347 -0.47067428 -0.044528451 -0.052439746 -0.044576719 -0.052235834 0.035471413 -0.45134029
27193750000 -0.13712807 -0.47189906 -0.048016921 -0.050393686 -0.047395349 -0.048304606 0.027280275 -0.45561019
27212500000 -0.14764327 -0.47665125 -0.052200302 -0.045095719 -0.050405361 -0.044994801 0.019521549 -0.46136689
27231250000 -0.15850778 -0.47999227 -0.053773534 -0.041489292 -0.05354578 -0.040742673 0.013302267 -0.46651405
27250000000 -0.16850232 -0.48083687 -0.058150623 -0.037177972 -0.055638589 -0.036182079 0.0058871857 -0.47272319
27268750000 -0.1795392 -0.48067331 -0.058335412 -0.031832647 -0.057603881 -0.032400202 -0.0022236272 -0.4767915
27287500000 -0.19223802 -0.48173305 -0.060584709 -0.029548014 -0.059925471 -0.027324686 -0.01070603 -0.48147812
27306250000 -0.20512131 -0.48264056 -0.063030489 -0.023303933 -0.05982947 -0.02273903 -0.019617068 -0.48752743
27325000000 -0.21608843 -0.48424119 -0.061859578 -0.018612904 -0.06072513 -0.019543186 -0.028967805 -0.49421057
27343750000 -0.22747003 -0.4832094 -0.063807391 -0.015501333 -0.062918425 -0.014975961 -0.03630713 -0.50003439
27362500000 -0.23853962 -0.4786911 -0.064088069 -0.010148998 -0.061979018 -0.0099290255 -0.043062162 -0.5048492
27381250000 -0.25142863 -0.47576135 -0.064565711 -0.0058274087 -0.06240572 -0.005869071 -0.050889604 -0.50707048
27400000000 -0.26715198 -0.47405639 -0.063782103 -0.00067705975 -0.06113296 -0.00073039863 -0.061001629 -0.50945222
27418750000 -0.28161764 -0.47333637 -0.06248543 0.0026352468 -0.060164873 0.0013850334 -0.072817676 -0.51099074
27437500000 -0.29246616 -0.47116083 -0.061927184 0.0068514906 -0.06121558 0.0062316721 -0.084289588 -0.51418662
27456250000 -0.30264229 -0.4674727 -0.060238622 0.012127858 -0.058883253 0.011845617 -0.097349413 -0.51602733
27475000000 -0.31607923 -0.46060285 -0.058120988 0.0144199 -0.05657747 0.014210827 -0.10902798 -0.51822245
27493750000 -0.33053878 -0.45397457 -0.057999171 0.018686775 -0.054971598 0.017737141 -0.12193082 -0.5213604
27512500000 -0.34645844 -0.45136943 -0.054072667 0.022415772 -0.053703409 0.020133784 -0.13384026 -0.52453631
27531250000 -0.3597075 -0.44814834 -0.053127654 0.023710433 -0.052187528 0.025755398 -0.14426216 -0.52660197
27550000000 -0.36945644 -0.44260201 -0.051177796 0.029087847 -0.047023579 0.027467947 -0.15457892 -0.52748597
27568750000 -0.37805232 -0.43488005 -0.046312116 0.031069566 -0.046620287 0.02856257 -0.16754854 -0.5259304
27587500000 -0.39133686 -0.42458397 -0.045601223 0.032659482 -0.043802653 0.033096328 -0.18076783 -0.5245344
27606250000 -0.40583402 -0.41320407 -0.042265065 0.036156036 -0.040229637 0.033201799 -0.19538601 -0.52538341
27625000000 -0.41843316 -0.40451646 -0.040130112 0.037214041 -0.039287571 0.035857853 -0.20858899 -0.5249778
27643750000 -0.43072566 -0.39620575 -0.036509179 0.040792458 -0.034724157 0.038048249 -0.22005004 -0.5229544
27662500000 -0.44223601 -0.38530043 -0.032260265 0.040558863 -0.032361414 0.038414769 -0.23480077 -0.51909393
27681250000 -0.45368198 -0.37367421 -0.031001559 0.041992873 -0.02982394 0.040453915 -0.25168803 -0.51509213
27700000000 -0.46711195 -0.36297238 -0.027258003 0.044718701 -0.027236897 0.041515343 -0.26730675 -0.51404518
27718750000 -0.4790175 -0.35354039 -0.02403185 0.044817392 -0.024376832 0.043000627 -0.28200215 -0.51432538
27737500000 -0.48733535 -0.34254608 -0.021461237 0.045816228 -0.021376371 0.043890934 -0.29409993 -0.51171589
27756250000 -0.49366376 -0.33058947 -0.017527385 0.045850169 -0.017839815 0.044188455 -0.3059949 -0.50608999
27775000000 -0.50125933 -0.31424889 -0.015591334 0.045202114 -0.0158475 0.043633983 -0.31992123 -0.49967745
27793750000 -0.50859779 -0.29763049 -0.013121276 0.047434311 -0.013579383 0.045798782 -0.33558282 -0.49491119
27812500000 -0.51622283 -0.2820943 -0.0081246179 0.047264718 -0.0091361925 0.045645222 -0.34833172 -0.49090561
27831250000 -0.52349097 -0.2670019 -0.0065546348 0.046005387 -0.0067053046 0.044587296 -0.35835701 -0.48522025
27850000000 -0.52928084 -0.25090519 -0.0032347937 0.047289912 -0.0044830735 0.044013519 -0.36739814 -0.47563416
27868750000 -0.53399903 -0.23372982 -0.00029372782 0.045175385 -0.0031375098 0.044011373 -0.37903249 -0.46286258
27887500000 -0.53931451 -0.21631192 0.0013770693 0.045479245 0.00067139504 0.044546902 -0.39314556 -0.45032409
27906250000 -0.54312229 -0.19803472 0.0053390367 0.044455819 0.0029772273 0.042652611 -0.4084397 -0.4391388
27925000000 -0.54639888 -0.18032409 0.0072057042 0.043439459 0.0048363949 0.043574702 -0.42197764 -0.42906076
27943750000 -0.54972816 -0.16230647 0.010215843 0.042603984 0.0088568144 0.042086884 -0.43389904 -0.41816834
27962500000 -0.55214441 -0.14350325 0.011356118 0.041119907 0.0096023129 0.040430244 -0.44528538 -0.4066163
27981250000 -0.55260408 -0.12705135 0.014788553 0.041594051 0.012350726 0.04056789 -0.45618036 -0.39415497
28000000000 -0.54952633 -0.11022282 0.018442977 0.038221885 0.015331782 0.038993489 -0.46726415 -0.38201168
28018750000 -0.54416472 -0.090699904 0.018898325 0.037033916 0.017577607 0.037375867 -0.47705916 -0.36895037
28037500000 -0.5388599 -0.067844816 0.022118188 0.035984829 0.018610291 0.035031345 -0.48568788 -0.35410914
28056250000 -0.53547168 -0.044279117 0.023739537 0.033054732 0.01976064 0.035535965 -0.49222785 -0.33783516
28075000000 -0.53230673 -0.024257917 0.024516443 0.031875126 0.024104061 0.0340477 -0.50077844 -0.32088679
28093750000 -0.5277648 -0.0075020874 0.027407959 0.030912409 0.025221668 0.030849533 -0.50955552 -0.30294427
28112500000 -0.51834118 0.0096955895 0.029386969 0.027254336 0.026636768 0.029541813 -0.51726818 -0.28569937
28131250000 -0.50536394 0.028491544 0.029854931 0.02546758 0.028219808 0.027682522 -0.5235194 -0.26960593
28150000000 -0.49370256 0.048736427 0.032422625 0.023431323 0.030676425 0.026665997 -0.52771634 -0.25366816
28168750000 -0.48340893 0.068966351 0.032446589 0.020453557 0.032627277 0.023270046 -0.53052998 -0.23599753
28187500000 -0.47107676 0.084172517 0.03456255 0.019099975 0.033938609 0.020478023 -0.53140587 -0.21676961
28206250000 -0.45463684 0.097624838 0.035437118 0.01532106 0.034642581 0.018206719 -0.53301483 -0.19592735
28225000000 -0.43486279 0.11213321 0.03537976 0.013029986 0.035886832 0.016522596 -0.53578204 -0.17543933
28243750000 -0.41359517 0.12914127 0.035493542 0.010542487 0.03732194 0.01306155 -0.53662926 -0.15629198
28262500000 -0.39284667 0.14582202 0.037064388 0.0093071992 0.037596103 0.010139682 -0.53520995 -0.13799633
28281250000 -0.37304437 0.15838392 0.038418166 0.0048359134 0.038219839 0.0074265604 -0.53136754 -0.11873237
28300000000 -0.3524074 0.16808139 0.036724351 0.001706862 0.038317565 0.003872786 -0.52646565 -0.0976092
28318750000 -0.32821298 0.17629802 0.036793087 0.00026338908 0.038193293 0.0017096697 -0.52162892 -0.076117963
