!Keysight Technologies,N5225A,MY55451607,A.10.47.03
!Date: Friday, May 31, 2024 11:18:39
!Correction: S11(Full 2 Port(1,2)) 
!S21(Full 2 Port(1,2)) 
!S12(Full 2 Port(1,2)) 
!S22(Full 2 Port(1,2)) 
!S2P File: Measurements: S11, S21, S12, S22:
# Hz S  RI   R 50
25000000000 -0.12627199 -0.41996118 -0.0067084311 -0.0059478823 -0.0066796811 -0.0059312535 -0.080967605 -0.44354489
25018750000 -0.13988458 -0.40122333 -0.0082039526 -0.0058267824 -0.0080743274 -0.0057948702 -0.095741034 -0.43125421
25037500000 -0.14895009 -0.37895489 -0.0089281155 -0.0047524013 -0.0088048661 -0.0047571952 -0.10656726 -0.41859087
25056250000 -0.15918913 -0.35914704 -0.0088777896 -0.0042294036 -0.0085730227 -0.0043797065 -0.11052714 -0.4036065
25075000000 -0.17026213 -0.33807665 -0.0099559138 -0.0042473827 -0.0098938309 -0.0045503485 -0.11446003 -0.38673252
25093750000 -0.17801915 -0.31933737 -0.01117158 -0.0028465213 -0.011051209 -0.0032756804 -0.12122738 -0.36767828
25112500000 -0.18058267 -0.30500057 -0.010406664 -0.0020271365 -0.010635792 -0.0024398938 -0.127885 -0.35148683
25131250000 -0.18104577 -0.28956532 -0.01176453 -0.0019524364 -0.01198824 -0.002029361 -0.13326563 -0.34059751
25150000000 -0.17781329 -0.26961505 -0.01258818 -0.00033522496 -0.012777161 -0.00050342502 -0.13299167 -0.32939124
25168750000 -0.17348689 -0.24999171 -0.011786586 0.0011204244 -0.012097115 0.00103722 -0.12938812 -0.31696954
25187500000 -0.17542636 -0.22998917 -0.012659298 0.0010217472 -0.012757622 0.001169612 -0.12556203 -0.30025882
25206250000 -0.17685737 -0.21352187 -0.013977667 0.0033177198 -0.013919579 0.0031412384 -0.12486924 -0.28284651
25225000000 -0.17552869 -0.20102423 -0.012293396 0.0048591732 -0.012435244 0.0045523876 -0.12740798 -0.26856682
25243750000 -0.17137256 -0.19219413 -0.012014234 0.0049380525 -0.012161559 0.0046022059 -0.12868057 -0.2599729
25262500000 -0.16304871 -0.18142094 -0.012833414 0.0067776158 -0.013435662 0.0066304128 -0.12724195 -0.2541852
25281250000 -0.1526612 -0.16935858 -0.01097734 0.0088175461 -0.011344324 0.0087660784 -0.12002638 -0.24803771
25300000000 -0.14479356 -0.15787363 -0.010270876 0.0080355629 -0.010721193 0.008259695 -0.11152396 -0.23961844
25318750000 -0.14037901 -0.14584893 -0.010785073 0.0097230505 -0.011154949 0.010080322 -0.10563982 -0.23008068
25337500000 -0.1312812 -0.13724318 -0.0090937782 0.011242734 -0.0093998564 0.011706677 -0.10278974 -0.22122329
25356250000 -0.12408745 -0.13383402 -0.0077750022 0.010690751 -0.0080212289 0.011352602 -0.098358728 -0.21724015
25375000000 -0.11732822 -0.12775242 -0.0087303426 0.011228402 -0.0086110886 0.011994755 -0.093179174 -0.21548373
25393750000 -0.10695243 -0.12262274 -0.0076222843 0.013837107 -0.007121379 0.014392116 -0.083431125 -0.20986858
25412500000 -0.098654933 -0.12151577 -0.0054508406 0.013186468 -0.00489516 0.013416175 -0.07726571 -0.20226811
25431250000 -0.09136647 -0.11852501 -0.0062813414 0.013350379 -0.0054452154 0.013342294 -0.074818499 -0.19560075
25450000000 -0.080891937 -0.11629951 -0.0050637582 0.015830914 -0.0045758598 0.015355846 -0.074682347 -0.19231273
25468750000 -0.071991019 -0.11524571 -0.0025297925 0.015771227 -0.0022320068 0.015272659 -0.070073888 -0.19391792
25487500000 -0.067040294 -0.11057222 -0.0023246428 0.015748464 -0.0021653795 0.015106948 -0.063921593 -0.19411115
25506250000 -0.062797114 -0.10679619 -0.00096619793 0.017315639 -0.0012489479 0.01671233 -0.056913279 -0.18672603
25525000000 -0.061767876 -0.10796485 0.0015816459 0.01773924 0.00071901252 0.017262736 -0.054754212 -0.17985071
25543750000 -0.060540993 -0.11036683 0.002643897 0.016777189 0.0021781847 0.016974781 -0.05760451 -0.17712393
25562500000 -0.054853059 -0.11280803 0.0043186131 0.017729038 0.0040668449 0.018004468 -0.058551375 -0.17932448
25581250000 -0.048427835 -0.11482979 0.0066372813 0.01735758 0.0062523377 0.017555095 -0.052082703 -0.18183476
25600000000 -0.04470871 -0.11324389 0.0078949602 0.016380306 0.0074216858 0.016843051 -0.042835288 -0.17854345
25618750000 -0.042511489 -0.10891246 0.009165463 0.01641394 0.0094332621 0.016843125 -0.038105577 -0.16843291
25637500000 -0.041012917 -0.10783152 0.011475747 0.015657619 0.011351326 0.015772218 -0.039810639 -0.15980726
25656250000 -0.043356843 -0.10799529 0.012512141 0.014067173 0.012488999 0.014567536 -0.043821793 -0.1585395
25675000000 -0.043981679 -0.10772975 0.013781332 0.013757984 0.013957171 0.014071802 -0.042946357 -0.15961856
25693750000 -0.041250039 -0.10669401 0.016074447 0.012278448 0.016359417 0.012421622 -0.035309892 -0.15714115
25712500000 -0.038111903 -0.10812823 0.017331507 0.010007108 0.017639911 0.010293672 -0.029130932 -0.14861989
25731250000 -0.037969261 -0.1066879 0.017636485 0.0092150355 0.018008117 0.0094234524 -0.030067544 -0.13915814
25750000000 -0.034179255 -0.10360637 0.019755185 0.007427407 0.02031265 0.0073180553 -0.033101115 -0.13418251
25768750000 -0.03020511 -0.10247116 0.019796081 0.0046528955 0.020162251 0.0043867356 -0.03112139 -0.13793118
25787500000 -0.028887324 -0.098930165 0.020345839 0.0030657682 0.020569684 0.0028704687 -0.021124369 -0.1389423
25806250000 -0.0242301 -0.094486997 0.020434292 0.0013907837 0.020776786 0.00083978649 -0.008465521 -0.13236618
25825000000 -0.020962965 -0.090850562 0.021410124 -0.0012218729 0.021232791 -0.0016628719 -0.0006781008 -0.11990215
25843750000 -0.020039359 -0.087603681 0.020433862 -0.0038565323 0.020085 -0.0040192865 -0.0013769488 -0.11041336
25862500000 -0.016768791 -0.082169041 0.020023396 -0.0048928866 0.019969802 -0.0051165498 -0.001339808 -0.10860088
25881250000 -0.010980191 -0.081111468 0.019853646 -0.0076950691 0.019433029 -0.0078051006 0.0068250117 -0.11045264
25900000000 -0.0070241774 -0.079709552 0.018537298 -0.0098806135 0.01811198 -0.0095680458 0.01969124 -0.10958077
25918750000 -0.0013540086 -0.074230634 0.016930694 -0.011354281 0.0168077 -0.010843121 0.03082994 -0.10047375
25937500000 0.0060846396 -0.069605775 0.015823089 -0.012947208 0.015965452 -0.012608293 0.037022822 -0.091199391
25956250000 0.0085754562 -0.067701422 0.014206706 -0.014485519 0.014216194 -0.014031209 0.039160345 -0.090631686
25975000000 0.011731648 -0.065039553 0.012398044 -0.015547787 0.012919688 -0.015153372 0.04463356 -0.095965244
25993750000 0.02014464 -0.068525739 0.01067278 -0.016294876 0.011151456 -0.016395237 0.059990931 -0.10118854
26012500000 0.028168399 -0.070838913 0.0089319898 -0.017053174 0.0093241567 -0.017115664 0.077731691 -0.10092647
26031250000 0.038797911 -0.068468228 0.0069254441 -0.017318876 0.0072968015 -0.01743884 0.089982755 -0.094278246
26050000000 0.049820144 -0.064904362 0.0056531336 -0.018190872 0.0061040143 -0.018286413 0.096259855 -0.090735786
26068750000 0.056250487 -0.064090885 0.0038285402 -0.017807974 0.004151864 -0.018180227 0.099709608 -0.097565837
26087500000 0.061435461 -0.065518394 0.0021689693 -0.017971536 0.0020358567 -0.018341811 0.10765083 -0.10831094
26106250000 0.070922337 -0.067701221 0.00020920287 -0.017594699 0.00045918085 -0.017687853 0.12265799 -0.11712582
26125000000 0.082400411 -0.07298322 -0.00078667043 -0.017252067 -0.00053786946 -0.017905721 0.13756159 -0.12220666
26143750000 0.090866536 -0.074864127 -0.0025612349 -0.017090928 -0.0028253372 -0.017626151 0.14703169 -0.12484048
26162500000 0.10031905 -0.077986769 -0.0039307238 -0.016162487 -0.0042912937 -0.016662695 0.15079086 -0.13149077
26181250000 0.10802042 -0.086114936 -0.0047954372 -0.01557876 -0.0055253627 -0.015764119 0.15589768 -0.14423148
26200000000 0.11519527 -0.095218815 -0.0059905346 -0.01587124 -0.0066749076 -0.015720829 0.16438662 -0.16002166
26218750000 0.12783636 -0.10252619 -0.0076675247 -0.014170958 -0.0081959395 -0.013856421 0.17615668 -0.17212744
26237500000 0.14050311 -0.1106659 -0.0084567554 -0.013830923 -0.0086289272 -0.013212061 0.18682304 -0.18253711
26256250000 0.14792189 -0.11866068 -0.0098536583 -0.013486818 -0.009704683 -0.012970224 0.19028211 -0.19285995
26275000000 0.15199229 -0.12656486 -0.011013732 -0.011934941 -0.010625241 -0.011317832 0.19317108 -0.20384921
26293750000 0.15815918 -0.13800162 -0.011696129 -0.010790998 -0.010944162 -0.010503246 0.19858356 -0.21987921
26312500000 0.16350169 -0.15246351 -0.012092184 -0.01018831 -0.011380719 -0.010043611 0.20233658 -0.23454289
26331250000 0.16914076 -0.1631795 -0.013789253 -0.0086340653 -0.013082722 -0.0088206558 0.20551917 -0.24480747
26350000000 0.17385776 -0.17507507 -0.013693657 -0.0068019121 -0.012962336 -0.0074109402 0.20579019 -0.25697279
26368750000 0.17399026 -0.18554008 -0.013638614 -0.0061250343 -0.013542035 -0.0067472411 0.20152625 -0.27166641
26387500000 0.17310676 -0.19619383 -0.014669401 -0.0049076029 -0.014378753 -0.0055557736 0.19949971 -0.28704867
26406250000 0.17306188 -0.21091843 -0.014413937 -0.0031075638 -0.014356852 -0.0042548059 0.20116375 -0.30343521
26425000000 0.17074195 -0.22762889 -0.013729825 -0.0021621783 -0.014628746 -0.0028671182 0.20050386 -0.31566885
26443750000 0.16985181 -0.24171396 -0.01439152 -0.0015314561 -0.015215071 -0.001562639 0.195989 -0.32454994
26462500000 0.1711486 -0.25513503 -0.013969373 -0.00028815231 -0.014540134 -0.00021569636 0.18828416 -0.33669788
26481250000 0.1706975 -0.2672354 -0.013984236 0.00011402721 -0.014765219 0.00028623044 0.18078837 -0.35342133
26500000000 0.16744937 -0.27676347 -0.014547565 0.0010651152 -0.015013696 0.0017805794 0.17707883 -0.36984819
26518750000 0.16204512 -0.28604183 -0.01357993 0.0029917031 -0.013553294 0.0038233113 0.17539543 -0.37974501
26537500000 0.15409468 -0.29747543 -0.013558554 0.003137267 -0.013331093 0.0035866962 0.16996735 -0.38599429
26556250000 0.14708412 -0.31049994 -0.014045818 0.0043560779 -0.013845213 0.0049364772 0.15690073 -0.39056945
26575000000 0.14302118 -0.32158592 -0.013700577 0.006268288 -0.01306844 0.0065778065 0.14258996 -0.40074724
26593750000 0.13845736 -0.33042091 -0.012462677 0.0068547339 -0.011931245 0.0067198118 0.13195555 -0.41613832
26612500000 0.13093966 -0.33820766 -0.012453781 0.0075032897 -0.012291947 0.0072272811 0.12548897 -0.42819408
26631250000 0.12052894 -0.3463884 -0.012414184 0.0092567652 -0.0119015 0.0091802152 0.12181662 -0.43152398
26650000000 0.11402246 -0.35607383 -0.011016702 0.010171414 -0.010709965 0.0095116394 0.11363868 -0.43260881
26668750000 0.10972436 -0.36667117 -0.010305818 0.010527303 -0.010853752 0.010295204 0.097484067 -0.43618992
26687500000 0.10574443 -0.37046829 -0.010125372 0.011769243 -0.010221959 0.011887155 0.084452674 -0.44278198
26706250000 0.098542713 -0.37010765 -0.0084954137 0.012916436 -0.0088266293 0.012830012 0.077872761 -0.45275283
26725000000 0.085643537 -0.37092313 -0.0080747223 0.012861791 -0.0085336939 0.013262405 0.073830687 -0.45728382
26743750000 0.069718547 -0.37665731 -0.006874036 0.014783073 -0.0068364604 0.015195397 0.067253098 -0.45448491
26762500000 0.059233971 -0.38660741 -0.0054281806 0.015377303 -0.0053105899 0.015689118 0.05674281 -0.4521952
26781250000 0.053714417 -0.3955794 -0.0039664852 0.015409759 -0.0036394815 0.015941957 0.040442679 -0.45553571
26800000000 0.05020136 -0.39838827 -0.0034573737 0.016573565 -0.0028065857 0.016753171 0.028793639 -0.46137592
26818750000 0.043910902 -0.39807269 -0.00078252889 0.016990121 -0.00028508046 0.016832922 0.02280855 -0.46765608
26837500000 0.032797843 -0.39978048 0.00026066005 0.017033769 0.00051807374 0.016634118 0.016416563 -0.46974003
26856250000 0.021490818 -0.40661424 0.0019369307 0.017387901 0.0022330894 0.017124239 0.0075617074 -0.46689877
26875000000 0.014138678 -0.41443402 0.0038380774 0.01746396 0.0039959145 0.017086096 -0.0022597855 -0.46790338
26893750000 0.0122589 -0.42129898 0.0060639018 0.017135728 0.0060718255 0.016630368 -0.012253715 -0.47391051
26912500000 0.0095721725 -0.42295593 0.0072486051 0.016374014 0.0069056447 0.016020644 -0.018844211 -0.47700155
26931250000 0.0040516332 -0.42351207 0.0094221262 0.016159113 0.0091519738 0.01588512 -0.021288525 -0.47782877
26950000000 -0.0043515628 -0.42547753 0.011763519 0.014992429 0.011159412 0.014628636 -0.027512304 -0.47576571
26968750000 -0.012340586 -0.43187395 0.012367007 0.013131532 0.011865996 0.01339398 -0.037852217 -0.47301728
26987500000 -0.019637842 -0.43753162 0.01376287 0.012558172 0.013634841 0.012596229 -0.047836382 -0.47271222
27006250000 -0.023474094 -0.44068968 0.015971128 0.010239176 0.015250504 0.010636314 -0.055661332 -0.47752559
27025000000 -0.030088363 -0.44344202 0.016144751 0.0086177029 0.016149927 0.0090520121 -0.062494859 -0.47951105
27043750000 -0.039916653 -0.44546306 0.016822359 0.0072201509 0.016936323 0.007170368 -0.066668175 -0.47823784
27062500000 -0.050961126 -0.44967607 0.017605731 0.0055456986 0.017286023 0.0058254725 -0.073713347 -0.47723347
27081250000 -0.060737137 -0.45784757 0.018318051 0.003253933 0.018740427 0.0037523503 -0.083839454 -0.47742209
27100000000 -0.068235472 -0.4650777 0.017504316 0.001363836 0.01769202 0.001331634 -0.093014859 -0.48109287
27118750000 -0.073630668 -0.4698351 0.017930938 0.00017905857 0.017924322 0.0001766221 -0.098990887 -0.48579508
27137500000 -0.079402529 -0.47296387 0.018399028 -0.0021157681 0.018194621 -0.0020042059 -0.10340931 -0.48839521
27156250000 -0.089136153 -0.47349343 0.01730519 -0.004144744 0.017421769 -0.003682514 -0.10843015 -0.4866021
27175000000 -0.10148746 -0.47389266 0.016997969 -0.005198502 0.017055321 -0.0055893143 -0.11637315 -0.48550028
27193750000 -0.11392039 -0.47742882 0.01636822 -0.0071076779 0.015881166 -0.0073045874 -0.12902381 -0.4863494
27212500000 -0.12662098 -0.48227525 0.015404711 -0.008932163 0.015299491 -0.0087125404 -0.14081858 -0.48937094
27231250000 -0.13731524 -0.48676118 0.014325384 -0.010152481 0.01408611 -0.010260555 -0.14843278 -0.49455345
27250000000 -0.14788315 -0.49018306 0.0129269 -0.01171062 0.012675909 -0.011404398 -0.15433054 -0.4968805
27268750000 -0.15924072 -0.49109522 0.011806467 -0.012296418 0.011649345 -0.01226559 -0.16281737 -0.4949151
27287500000 -0.17106901 -0.49230218 0.010793803 -0.013789926 0.010140416 -0.013474101 -0.17393769 -0.49180785
27306250000 -0.18491295 -0.49436876 0.0083416859 -0.014968764 0.008207228 -0.014193534 -0.18741536 -0.49400237
27325000000 -0.19732906 -0.49478331 0.0069017713 -0.014399646 0.0067570251 -0.014090235 -0.19969931 -0.49820858
27343750000 -0.20940731 -0.49372518 0.0062443018 -0.015997039 0.0061579831 -0.01515108 -0.20655285 -0.5016712
27362500000 -0.22214495 -0.49127844 0.0035366246 -0.015987109 0.003748345 -0.01547633 -0.21142697 -0.50105208
27381250000 -0.23651165 -0.48835668 0.002069385 -0.015685594 0.0021690917 -0.014961234 -0.21960714 -0.49557802
27400000000 -0.25237209 -0.48684865 0.00074648013 -0.015411309 0.0011096998 -0.014587563 -0.23194981 -0.49101034
27418750000 -0.26663509 -0.48649141 -0.00040224163 -0.01554637 0.00037197795 -0.014952451 -0.24594536 -0.4901568
27437500000 -0.27894074 -0.48470199 -0.002559778 -0.015221916 -0.0019119892 -0.015349984 -0.25749198 -0.48958728
27456250000 -0.28949213 -0.48013321 -0.0036788313 -0.014188351 -0.0033090366 -0.014002837 -0.26581028 -0.48611292
27475000000 -0.30193019 -0.47308251 -0.0045249471 -0.013938888 -0.0039725243 -0.013746157 -0.27538398 -0.48011261
27493750000 -0.31806013 -0.46568561 -0.0063483622 -0.013172805 -0.005885053 -0.012976109 -0.28928626 -0.47389331
27512500000 -0.33453622 -0.46025383 -0.0067700339 -0.011857994 -0.0062226611 -0.012291868 -0.30452913 -0.47068247
27531250000 -0.3490679 -0.45582387 -0.007572961 -0.011519222 -0.0079745175 -0.011644584 -0.31533483 -0.46905935
27550000000 -0.36094406 -0.45102087 -0.008944531 -0.010559188 -0.0085474746 -0.010165446 -0.32427314 -0.4664104
27568750000 -0.37205943 -0.44374868 -0.0091989748 -0.0086963726 -0.009171254 -0.0091097541 -0.33354315 -0.45693386
27587500000 -0.3848106 -0.43440795 -0.0093584508 -0.0083181495 -0.0095795067 -0.0080367336 -0.34585854 -0.44666129
27606250000 -0.39797223 -0.42393577 -0.010279519 -0.0073689134 -0.0097782835 -0.0071538133 -0.36109123 -0.44166666
27625000000 -0.41155097 -0.41461736 -0.010279561 -0.0062710596 -0.010145831 -0.0061765099 -0.37393683 -0.43757144
27643750000 -0.42398182 -0.40488189 -0.010320957 -0.005410539 -0.0098786652 -0.0051760594 -0.38057998 -0.4317587
27662500000 -0.43658629 -0.39438292 -0.010417536 -0.0044371807 -0.010199778 -0.0044958312 -0.3864055 -0.42049226
27681250000 -0.44871348 -0.38330737 -0.010703387 -0.0036739716 -0.010323018 -0.0034379908 -0.39699501 -0.40695852
27700000000 -0.46024519 -0.37264225 -0.010764568 -0.0028770284 -0.010081076 -0.0028145367 -0.41216061 -0.39422193
27718750000 -0.47077891 -0.36220026 -0.01084771 -0.0020852499 -0.010128803 -0.0023734181 -0.42472625 -0.38845435
27737500000 -0.47830802 -0.34995171 -0.010876866 -0.0012049506 -0.010493195 -0.0015803925 -0.43324357 -0.38316131
27756250000 -0.48562664 -0.33512866 -0.010414217 -0.00030749993 -0.0099932598 -0.00041484673 -0.43696657 -0.3725628
27775000000 -0.49398336 -0.31815568 -0.010059695 0.00034875484 -0.0094402833 -0.00010515122 -0.4423891 -0.35726598
27793750000 -0.50278515 -0.30131277 -0.010065782 0.00058776658 -0.0097917859 5.3828976e-006 -0.4529807 -0.34244874
27812500000 -0.51109111 -0.28619197 -0.0097923018 0.0016960609 -0.0097489236 0.0013402059 -0.46504 -0.33071569
27831250000 -0.51835018 -0.27126023 -0.0092130974 0.001710054 -0.0090917265 0.0012703132 -0.47048801 -0.32183868
27850000000 -0.52438575 -0.25421345 -0.0095744254 0.0024536073 -0.0093917912 0.0017130639 -0.47182938 -0.30996707
27868750000 -0.52958256 -0.23682784 -0.0086930851 0.003370879 -0.0090456242 0.0026731051 -0.47258952 -0.28988263
27887500000 -0.53516084 -0.21902516 -0.0081818877 0.0030194726 -0.0085157873 0.0026874198 -0.47796544 -0.26754594
27906250000 -0.53877223 -0.20094079 -0.0089251176 0.0036604013 -0.0091228541 0.0029790739 -0.4886485 -0.24771902
27925000000 -0.54127192 -0.18280329 -0.0081391921 0.0047422987 -0.0089790281 0.0043502948 -0.49719098 -0.23384503
27943750000 -0.54382306 -0.16307476 -0.0071415878 0.0044173421 -0.0076090605 0.004555807 -0.50094926 -0.22083092
27962500000 -0.54630035 -0.14269172 -0.0076814154 0.0044739991 -0.007828976 0.0043984558 -0.49991366 -0.20440933
27981250000 -0.54678833 -0.12547582 -0.0073196315 0.0052211606 -0.0077349185 0.0051236185 -0.49957293 -0.18402351
28000000000 -0.54612184 -0.10853043 -0.0069228546 0.0050911657 -0.007296917 0.0051802155 -0.50401163 -0.16404347
28018750000 -0.54043669 -0.088651195 -0.007032977 0.0055584265 -0.0070962762 0.005787245 -0.50810856 -0.14814091
28037500000 -0.53347868 -0.066404477 -0.0068124607 0.0056848205 -0.0066901203 0.0055696801 -0.50693053 -0.13362746
28056250000 -0.52927136 -0.043370981 -0.0066841473 0.0063101458 -0.0070458483 0.0061828052 -0.50053734 -0.11857192
28075000000 -0.52633417 -0.021189732 -0.0068170978 0.0062861573 -0.0068815555 0.0066953846 -0.49200699 -0.097729154
28093750000 -0.52001351 -0.0043433602 -0.0067853681 0.0073199472 -0.0063962904 0.0071091158 -0.48626807 -0.07609348
28112500000 -0.51062983 0.011780971 -0.0065157493 0.0079798866 -0.00648236 0.0076015419 -0.48346844 -0.055753663
28131250000 -0.49675724 0.031106068 -0.0060084253 0.0084371222 -0.0058782324 0.0080739865 -0.47670254 -0.039840467
28150000000 -0.48293012 0.051894881 -0.0058322279 0.0092420932 -0.0061245933 0.0085714199 -0.46507299 -0.027270706
28168750000 -0.4717896 0.071906999 -0.0053875712 0.0093537206 -0.0058206785 0.0091385897 -0.44832101 -0.0094365822
28187500000 -0.45961437 0.089324839 -0.0052240132 0.010456361 -0.0054491758 0.0099687167 -0.43286002 0.0117133
28206250000 -0.44354081 0.10334865 -0.0041830665 0.011166699 -0.0047619385 0.010373826 -0.4204793 0.033137754
28225000000 -0.42436981 0.11824962 -0.0038743964 0.011386083 -0.0049876152 0.011096381 -0.41012439 0.04934182
28243750000 -0.40285853 0.13482827 -0.0033296493 0.011958326 -0.0042768135 0.012296065 -0.3940936 0.06030247
28262500000 -0.38363427 0.15113658 -0.0026688257 0.01255634 -0.0031846368 0.012527997 -0.37234819 0.069301657
28281250000 -0.36374611 0.16617611 -0.0015772161 0.013614946 -0.0029563513 0.013714041 -0.34732804 0.08265464
