!Keysight Technologies,N5225A,MY55451607,A.10.47.03
!Date: Friday, May 31, 2024 11:17:43
!Correction: S11(Full 2 Port(1,2)) 
!S21(Full 2 Port(1,2)) 
!S12(Full 2 Port(1,2)) 
!S22(Full 2 Port(1,2)) 
!S2P File: Measurements: S11, S21, S12, S22:
# Hz S  RI   R 50
25000000000 -0.083137967 -0.43105546 -0.010090938 0.0064822249 -0.010531116 0.0061317594 -0.12301683 -0.48281103
25018750000 -0.093838483 -0.41659945 -0.010500092 0.0084094619 -0.010797378 0.0082421452 -0.14048356 -0.46642014
25037500000 -0.1057689 -0.39861089 -0.0086120972 0.0091608446 -0.0090451101 0.0088016661 -0.15320249 -0.45305985
25056250000 -0.11612749 -0.37700769 -0.0084841801 0.0089367013 -0.0090618683 0.0091676824 -0.16229863 -0.43725392
25075000000 -0.12757152 -0.35702083 -0.0081903199 0.01024302 -0.0084416093 0.01055882 -0.16928536 -0.41624615
25093750000 -0.13816042 -0.34185711 -0.0064759906 0.011493522 -0.0068333638 0.011786196 -0.1753428 -0.39630389
25112500000 -0.14500287 -0.32764316 -0.0054363897 0.01072584 -0.0057201069 0.011292018 -0.18606134 -0.37732682
25131250000 -0.14504856 -0.31301424 -0.0061807353 0.011780851 -0.005965679 0.012506961 -0.19386038 -0.36016747
25150000000 -0.14253211 -0.29659808 -0.0039555798 0.013011388 -0.0035877465 0.01318695 -0.1958098 -0.34610382
25168750000 -0.14085072 -0.27604827 -0.0031748193 0.012437219 -0.0027301393 0.012627121 -0.19639845 -0.33030337
25187500000 -0.1425799 -0.25513935 -0.0027362516 0.01280443 -0.0020272657 0.012729028 -0.19607538 -0.30946648
25206250000 -0.1449113 -0.23967107 -0.0015276732 0.013836075 -0.00083694555 0.013385369 -0.19690283 -0.28728202
25225000000 -0.14795054 -0.22878531 0.00031205398 0.013162369 0.00060645904 0.012274429 -0.20118026 -0.27075881
25243750000 -0.14297973 -0.21866964 0.00029483435 0.013309344 0.00012528046 0.012385522 -0.20550326 -0.25462288
25262500000 -0.13486512 -0.21037121 0.0016860982 0.013900082 0.0013705549 0.013080391 -0.20338029 -0.24340113
25281250000 -0.12859891 -0.19884229 0.0034990911 0.013093067 0.0027540575 0.012184691 -0.19770421 -0.23337342
25300000000 -0.12169067 -0.1835845 0.0041085002 0.012091804 0.0028512923 0.01170073 -0.19211352 -0.21857302
25318750000 -0.11523318 -0.17500351 0.0043921764 0.012606833 0.003078375 0.012566815 -0.18520632 -0.20354058
25337500000 -0.11304536 -0.16778173 0.0060434085 0.011603626 0.0046745483 0.011942201 -0.18086225 -0.19178571
25356250000 -0.10478108 -0.16141881 0.0058710305 0.010728556 0.0048625115 0.011564726 -0.17749041 -0.1829199
25375000000 -0.096379481 -0.15772222 0.0062337122 0.010791478 0.0053583477 0.01196896 -0.16767335 -0.17457314
25393750000 -0.088716328 -0.15270236 0.0072185132 0.010403152 0.006641964 0.011750879 -0.15604384 -0.16503657
25412500000 -0.081884742 -0.14791451 0.0071887677 0.0091846939 0.0074423202 0.010638399 -0.15007976 -0.15425348
25431250000 -0.074108563 -0.14680739 0.0069806599 0.0099619674 0.007583871 0.011159689 -0.14454167 -0.13981813
25450000000 -0.06823124 -0.14516069 0.0076781916 0.010112391 0.0082400115 0.011015956 -0.13893008 -0.13476543
25468750000 -0.060382906 -0.14000417 0.0087733958 0.0095670335 0.0095912386 0.010137813 -0.13357627 -0.13249905
25487500000 -0.053251434 -0.13656391 0.0081443703 0.0087225102 0.0089702765 0.009316545 -0.12215134 -0.12499633
25506250000 -0.051472642 -0.13160993 0.009166915 0.0099892523 0.0099942377 0.010130065 -0.10897811 -0.11663156
25525000000 -0.051658306 -0.12945329 0.010359336 0.0099752592 0.011334295 0.0098323626 -0.1030094 -0.10778591
25543750000 -0.04922061 -0.13058253 0.011031403 0.0093132257 0.011448747 0.0090829087 -0.10116854 -0.10004394
25562500000 -0.045136679 -0.13254155 0.01220974 0.0094449539 0.012671213 0.009584289 -0.093262829 -0.099761069
25581250000 -0.038638696 -0.13316041 0.013460224 0.0088904677 0.014086537 0.0090022888 -0.083520934 -0.10183676
25600000000 -0.032117542 -0.13054562 0.014609423 0.007455715 0.015374047 0.007332182 -0.071354322 -0.093943618
25618750000 -0.030170903 -0.12668568 0.014447852 0.0077197338 0.015048638 0.0075326287 -0.060951207 -0.083605014
25637500000 -0.03005063 -0.12265586 0.016522514 0.0072636344 0.017223425 0.0071065226 -0.059292868 -0.07689397
25656250000 -0.030463733 -0.12123634 0.017136551 0.0055290693 0.017943764 0.0048572947 -0.059419852 -0.074109137
25675000000 -0.029402677 -0.12176152 0.017263459 0.0048836912 0.017799953 0.0041337791 -0.053498831 -0.073954411
25693750000 -0.029412704 -0.12253969 0.01876843 0.0045083319 0.019014122 0.0037535534 -0.042488541 -0.073204279
25712500000 -0.026029006 -0.11903147 0.02017881 0.0032520215 0.020303912 0.0022650189 -0.035014655 -0.066185705
25731250000 -0.022783764 -0.11908648 0.019934446 0.0020309463 0.019692088 0.001062077 -0.032100759 -0.057582702
25750000000 -0.020877631 -0.1161188 0.022071086 0.00085956603 0.021577178 0.00041331333 -0.029803097 -0.057796769
25768750000 -0.017604619 -0.11277024 0.022777721 -0.0013124107 0.022401243 -0.002085519 -0.025958095 -0.061792377
25787500000 -0.013958128 -0.11118425 0.022595709 -0.0026415307 0.021541011 -0.0031515085 -0.012075619 -0.063348852
25806250000 -0.011313119 -0.10736615 0.023799019 -0.003998002 0.023072178 -0.0036754559 0.0045483662 -0.059381004
25825000000 -0.0075547411 -0.10179143 0.024729295 -0.0065843794 0.02424673 -0.0065977634 0.013483865 -0.051575355
25843750000 -0.0037990233 -0.097621389 0.024365151 -0.009033394 0.02337604 -0.0089093512 0.016774716 -0.044299342
25862500000 -0.00074150972 -0.095171236 0.024187144 -0.010843542 0.023676973 -0.0099489996 0.020711064 -0.046256259
25881250000 0.0014085956 -0.091622919 0.024025179 -0.012785254 0.024022046 -0.012073428 0.028444234 -0.051029462
25900000000 0.0080891233 -0.088992491 0.023491839 -0.015658654 0.02347178 -0.015085923 0.041323975 -0.052304883
25918750000 0.015160122 -0.086457685 0.02246264 -0.01712624 0.022409786 -0.0164016 0.054542445 -0.046900187
25937500000 0.019660804 -0.081596501 0.022062225 -0.019597573 0.022758337 -0.018824769 0.059648253 -0.043588445
25956250000 0.023280405 -0.077687681 0.020136314 -0.022216709 0.021026094 -0.022113679 0.061061971 -0.04320031
25975000000 0.026758939 -0.078154586 0.018501803 -0.023550805 0.019040899 -0.023554724 0.069251463 -0.04876883
25993750000 0.030552126 -0.078924537 0.017597752 -0.024755156 0.018292155 -0.02456326 0.082798325 -0.055899918
26012500000 0.042398002 -0.080703445 0.016187428 -0.027544161 0.017302388 -0.028012007 0.097988375 -0.056120779
26031250000 0.052992776 -0.080877535 0.013340978 -0.029144377 0.013611241 -0.029697532 0.10956531 -0.051354576
26050000000 0.061949905 -0.077911943 0.011532705 -0.029443398 0.012134588 -0.029418437 0.11484993 -0.049926817
26068750000 0.069092721 -0.076280467 0.010032197 -0.031593692 0.010538426 -0.032670174 0.11759666 -0.053716976
26087500000 0.076448172 -0.077869952 0.0074290056 -0.032596949 0.0069130864 -0.03338825 0.12431571 -0.064781561
26106250000 0.084932901 -0.083783388 0.0056465627 -0.033368479 0.0055509917 -0.033517443 0.13631171 -0.074660406
26125000000 0.095201962 -0.087805919 0.0028338488 -0.035426941 0.0025512541 -0.035698336 0.14929073 -0.080457009
26143750000 0.10513052 -0.090806328 -0.0011739148 -0.035422843 -0.0017463316 -0.035817638 0.15759741 -0.083208896
26162500000 0.11267971 -0.095117368 -0.0028322169 -0.035084993 -0.0033341998 -0.034434099 0.1627958 -0.089095749
26181250000 0.11906484 -0.10269499 -0.0060257064 -0.036138073 -0.0053721201 -0.035452779 0.16655286 -0.10141549
26200000000 0.1273647 -0.11306865 -0.009708439 -0.035089415 -0.0093315188 -0.0357696 0.17213507 -0.11656114
26218750000 0.13727452 -0.12291341 -0.011875566 -0.033961002 -0.011799704 -0.033976994 0.18287642 -0.12698051
26237500000 0.14660068 -0.13096274 -0.014969209 -0.032739516 -0.014192534 -0.033184357 0.1936969 -0.13639142
26256250000 0.154342 -0.13684098 -0.016933843 -0.031444736 -0.016443513 -0.032520585 0.20055823 -0.14431782
26275000000 0.15869331 -0.14588106 -0.01907466 -0.030843927 -0.019766111 -0.031956594 0.20536752 -0.15334058
26293750000 0.16265267 -0.1563687 -0.021316871 -0.029295743 -0.021576483 -0.029451925 0.2103401 -0.1655762
26312500000 0.16710104 -0.16801615 -0.023458313 -0.027710106 -0.023855312 -0.028356832 0.21706115 -0.17779683
26331250000 0.17264295 -0.17779329 -0.024743704 -0.025505815 -0.026205242 -0.025789214 0.22287913 -0.18700558
26350000000 0.17746978 -0.18670619 -0.026503064 -0.024550539 -0.027302109 -0.023680056 0.22551486 -0.19794124
26368750000 0.17848435 -0.19624425 -0.028574893 -0.02297084 -0.028853675 -0.022400308 0.22468536 -0.21053238
26387500000 0.17805034 -0.20649496 -0.029999396 -0.020518847 -0.030291801 -0.019740414 0.22448049 -0.22433062
26406250000 0.17711298 -0.21982639 -0.031106586 -0.018538646 -0.030790448 -0.01766064 0.22832297 -0.23856111
26425000000 0.17691967 -0.23445119 -0.032274999 -0.016687099 -0.031932719 -0.016357087 0.23014756 -0.25073013
26443750000 0.1776728 -0.24875499 -0.03342304 -0.01464487 -0.033049673 -0.014150233 0.22915415 -0.25905097
26462500000 0.17886482 -0.26280636 -0.034167204 -0.012521132 -0.033630069 -0.011972734 0.22488056 -0.26933908
26481250000 0.17870037 -0.27367282 -0.035580631 -0.011090006 -0.034734879 -0.010979448 0.2198974 -0.28287295
26500000000 0.17709364 -0.28129417 -0.036630031 -0.0077484101 -0.03633837 -0.0080955885 0.21833058 -0.29722595
26518750000 0.17184693 -0.29145867 -0.036104336 -0.0055586309 -0.036010228 -0.0051905965 0.21987073 -0.30810726
26537500000 0.16418718 -0.30242407 -0.037255708 -0.0040236511 -0.036591012 -0.0038679705 0.21683449 -0.31399828
26556250000 0.1583841 -0.3148286 -0.038020391 -0.00057022105 -0.037756752 -0.001287217 0.20864907 -0.32022133
26575000000 0.15418199 -0.32618824 -0.037653979 0.001990888 -0.037920348 0.0019476739 0.19669065 -0.33165538
26593750000 0.1485958 -0.33399025 -0.037303906 0.0040269359 -0.036931053 0.0043503526 0.18766129 -0.34786478
26612500000 0.14138858 -0.33972952 -0.037720185 0.0063397177 -0.037582144 0.0058419504 0.18489492 -0.36189541
26631250000 0.13295817 -0.34843746 -0.037426244 0.0087888697 -0.037652209 0.0091283657 0.18354677 -0.37065515
26650000000 0.12384563 -0.35803843 -0.03670419 0.011567813 -0.036213614 0.011978961 0.1771435 -0.37401855
26668750000 0.11984386 -0.36590683 -0.036181521 0.01379317 -0.036018688 0.013497282 0.16601411 -0.37817514
26687500000 0.11716463 -0.36910003 -0.03580454 0.016313279 -0.035811622 0.01640619 0.15480161 -0.38769683
26706250000 0.10960938 -0.36821958 -0.034726165 0.019166512 -0.034439821 0.019130314 0.14811102 -0.39967108
26725000000 0.096035823 -0.36830491 -0.033214729 0.021574905 -0.033112582 0.021418776 0.14606291 -0.40606391
26743750000 0.082015872 -0.37417269 -0.032562938 0.023971913 -0.032119475 0.023545146 0.14200696 -0.4063848
26762500000 0.072018236 -0.38448229 -0.030141324 0.027168725 -0.030511152 0.026526168 0.13145176 -0.40616569
26781250000 0.068229057 -0.39294568 -0.028210625 0.028472604 -0.0288032 0.028680159 0.11730319 -0.40960595
26800000000 0.065302968 -0.39599168 -0.026322812 0.031248376 -0.026251767 0.031108996 0.10484064 -0.4179092
26818750000 0.058883194 -0.3960155 -0.024138248 0.032997951 -0.024622625 0.033067148 0.097853534 -0.42605144
26837500000 0.048791658 -0.39831683 -0.021342771 0.034533061 -0.02149963 0.034934204 0.091967762 -0.43041563
26856250000 0.036899574 -0.40554404 -0.019231392 0.036131825 -0.019161202 0.036448218 0.085119709 -0.43015286
26875000000 0.030896155 -0.41436976 -0.016461864 0.038108148 -0.01681589 0.03832547 0.074856415 -0.43186805
26893750000 0.029075932 -0.42058042 -0.01303303 0.039583243 -0.012867711 0.039749779 0.064171694 -0.43694639
26912500000 0.026138663 -0.42287937 -0.0096990475 0.039776325 -0.0098699136 0.039634835 0.058219757 -0.44205216
26931250000 0.019063203 -0.42293674 -0.0078175692 0.040422834 -0.0081086922 0.040517081 0.055957973 -0.44416746
26950000000 0.010721195 -0.42586952 -0.0037654485 0.042384785 -0.0037662291 0.042220168 0.050321244 -0.44155827
26968750000 0.002827503 -0.43177405 -1.0636302e-005 0.040878199 -0.00029655604 0.041063029 0.040625338 -0.43915394
26987500000 -0.0015827999 -0.438407 0.0022289795 0.041236639 0.0022279341 0.041340124 0.029955091 -0.44050485
27006250000 -0.0055982308 -0.44230837 0.0066482229 0.041473493 0.0062131593 0.041641228 0.020936245 -0.4459902
27025000000 -0.011343992 -0.44364297 0.0094466051 0.039408192 0.0096263951 0.0400264 0.016301133 -0.45018855
27043750000 -0.020103091 -0.44630665 0.012653313 0.039718311 0.013214376 0.038764086 0.013182386 -0.45218554
27062500000 -0.031179573 -0.45190755 0.016456105 0.037671663 0.015766652 0.037405539 0.0082125934 -0.45181364
27081250000 -0.040098425 -0.45968401 0.0189886 0.035750635 0.019155463 0.036504719 0.00060683617 -0.45336297
27100000000 -0.04597418 -0.46808222 0.021744641 0.033152483 0.021997966 0.032904971 -0.0071871751 -0.45884031
27118750000 -0.050815534 -0.47328973 0.023916174 0.031523786 0.023551492 0.031256977 -0.010329774 -0.46441382
27137500000 -0.056332298 -0.47563145 0.02759584 0.029555326 0.026668433 0.02958075 -0.010054214 -0.46829879
27156250000 -0.065346181 -0.47668439 0.029116692 0.025305662 0.028188614 0.025800511 -0.0119422 -0.4685241
27175000000 -0.077419564 -0.47888562 0.02951852 0.023175925 0.029843222 0.023531618 -0.019460212 -0.46613726
27193750000 -0.089677617 -0.48284328 0.032594815 0.020458775 0.032106433 0.019809349 -0.029039394 -0.46736094
27212500000 -0.10146456 -0.48825005 0.032424338 0.016348921 0.031713638 0.017086463 -0.038744375 -0.47361848
27231250000 -0.11180501 -0.49298283 0.03322272 0.014256748 0.033315379 0.014192862 -0.046732336 -0.48143613
27250000000 -0.12094776 -0.49549615 0.03475697 0.010339242 0.033804011 0.010626317 -0.049810473 -0.48415542
27268750000 -0.13234709 -0.49764249 0.032988079 0.0067242682 0.03323793 0.0074907397 -0.054585703 -0.48550117
27287500000 -0.14502472 -0.49900824 0.033366431 0.0054103993 0.033150852 0.0045529068 -0.065290041 -0.48572117
27306250000 -0.15816417 -0.50131553 0.033359863 0.0011894885 0.032318983 0.0014319827 -0.075558014 -0.48855799
27325000000 -0.16990116 -0.50263339 0.031360742 -0.001478907 0.031815294 -0.00073413254 -0.083183587 -0.49637139
27343750000 -0.18107715 -0.50205946 0.030302405 -0.0033398066 0.030807177 -0.0038272708 -0.088386774 -0.50327784
27362500000 -0.19370036 -0.49970493 0.029501554 -0.0055894176 0.028950101 -0.005928949 -0.092302047 -0.50254726
27381250000 -0.20853369 -0.49747592 0.027973104 -0.0078402525 0.027718905 -0.0079226708 -0.097866528 -0.49962324
27400000000 -0.22496568 -0.49693054 0.025999201 -0.0091610663 0.025546599 -0.0096519319 -0.10878986 -0.49962005
27418750000 -0.23926593 -0.49726763 0.0251575 -0.010428358 0.024148241 -0.010405702 -0.12168504 -0.50224775
27437500000 -0.25092486 -0.49660385 0.02358897 -0.012712378 0.023245048 -0.01283162 -0.13157487 -0.50555003
27456250000 -0.26136062 -0.49288103 0.02141629 -0.013563831 0.020813357 -0.014116377 -0.13871934 -0.50731957
27475000000 -0.27472386 -0.48602417 0.020215005 -0.01411312 0.018957766 -0.014588319 -0.14888388 -0.50632209
27493750000 -0.29103386 -0.47857019 0.018977594 -0.016166789 0.01744798 -0.015331245 -0.16068709 -0.50525206
27512500000 -0.30754527 -0.47405326 0.016109429 -0.016720114 0.015948132 -0.015921349 -0.17326929 -0.50845057
27531250000 -0.3221167 -0.47123012 0.015591341 -0.016520007 0.014364055 -0.017008321 -0.18302168 -0.51361722
27550000000 -0.33407328 -0.46709779 0.013683014 -0.018074144 0.011996501 -0.016370762 -0.18903176 -0.51472634
27568750000 -0.34600222 -0.45871282 0.011129806 -0.01837603 0.011481785 -0.017169371 -0.19648513 -0.51072949
27587500000 -0.35879606 -0.44910809 0.010156136 -0.017953677 0.0096100643 -0.017418172 -0.20855759 -0.50712186
27606250000 -0.37391111 -0.43950909 0.0083229411 -0.018395472 0.0082807895 -0.016756421 -0.22433299 -0.50541192
27625000000 -0.38858593 -0.4310261 0.0072817691 -0.017856518 0.0077870013 -0.017253844 -0.23713981 -0.50598323
27643750000 -0.40142187 -0.42277443 0.0054004625 -0.018534046 0.0057071103 -0.017622048 -0.24694392 -0.50637889
27662500000 -0.41356644 -0.41265506 0.0039506974 -0.017581625 0.0045678676 -0.017329086 -0.25725159 -0.50101376
27681250000 -0.42545146 -0.40090835 0.0030228416 -0.01712767 0.0030473287 -0.016843164 -0.27099615 -0.49290505
27700000000 -0.43762031 -0.39149576 0.0019234011 -0.017400755 0.0022983958 -0.01712266 -0.28795335 -0.48971397
27718750000 -0.44896454 -0.38094991 0.00043254331 -0.017014353 0.00036753717 -0.017087854 -0.30495325 -0.49069518
27737500000 -0.45758501 -0.36975417 -0.0010464716 -0.01651301 -0.0013766394 -0.016040297 -0.31515375 -0.49049008
27756250000 -0.46508974 -0.35590914 -0.0019238322 -0.015536025 -0.0020672176 -0.015045779 -0.32123819 -0.48839298
27775000000 -0.47361585 -0.33929539 -0.0023331081 -0.014494706 -0.0026272833 -0.014158034 -0.33206537 -0.48031011
27793750000 -0.48301008 -0.32258949 -0.0030715244 -0.014537086 -0.0035001568 -0.013847951 -0.34482536 -0.47148541
27812500000 -0.492764 -0.30703738 -0.0043203188 -0.013791992 -0.0043896562 -0.01281227 -0.35949281 -0.46642384
27831250000 -0.50028163 -0.2919817 -0.004992865 -0.013096271 -0.0046810117 -0.011870594 -0.37116671 -0.46380576
27850000000 -0.5076288 -0.27593872 -0.0053809122 -0.012435718 -0.0047723004 -0.011265104 -0.37891468 -0.45631176
27868750000 -0.51305717 -0.25790116 -0.0058568339 -0.0116258 -0.0049445848 -0.010934377 -0.38620842 -0.44470611
27887500000 -0.51738584 -0.24033161 -0.0063654976 -0.011524284 -0.0056056571 -0.010578478 -0.40006509 -0.43030173
27906250000 -0.52282292 -0.22267105 -0.0073218364 -0.010775663 -0.0058929515 -0.010016844 -0.41701216 -0.41743463
27925000000 -0.52613032 -0.20357357 -0.0076092142 -0.0096132141 -0.0061733606 -0.0095733311 -0.43246996 -0.410126
27943750000 -0.52915078 -0.18429442 -0.0078060981 -0.0092491852 -0.0065272986 -0.0093616731 -0.44384524 -0.40515342
27962500000 -0.53263986 -0.16532673 -0.0080260048 -0.0088378107 -0.0069109946 -0.0091948621 -0.4519856 -0.39603823
27981250000 -0.53386861 -0.14751734 -0.0091061499 -0.0086592315 -0.0076547014 -0.008968099 -0.45836902 -0.38206625
28000000000 -0.5318206 -0.13004254 -0.0093283104 -0.0069283368 -0.0080648987 -0.0081119714 -0.46760926 -0.36885092
28018750000 -0.52710015 -0.11061057 -0.0093625663 -0.0069900141 -0.0088078873 -0.0078737307 -0.4806411 -0.35591477
28037500000 -0.52237332 -0.087408379 -0.010447933 -0.0063803345 -0.0094109494 -0.0070575508 -0.48993915 -0.34463096
28056250000 -0.51927513 -0.063759975 -0.010397818 -0.0046706535 -0.0096855992 -0.0062506697 -0.49474594 -0.33344525
28075000000 -0.51703542 -0.043505974 -0.010126743 -0.0047653941 -0.010333157 -0.0058571282 -0.49962842 -0.31782407
28093750000 -0.51235944 -0.026133401 -0.011088123 -0.0041978545 -0.010709527 -0.0048713838 -0.50612086 -0.2976523
28112500000 -0.50293642 -0.0091918278 -0.011519924 -0.0025249871 -0.011347374 -0.0038048574 -0.51499033 -0.28033715
28131250000 -0.48941377 0.011321075 -0.010434119 -0.0015286679 -0.010687788 -0.002611761 -0.52521622 -0.26730809
28150000000 -0.47716865 0.032299038 -0.01106893 -0.0014926423 -0.011333955 -0.0027830473 -0.52977735 -0.25552219
28168750000 -0.46664163 0.053819451 -0.010764473 -0.0005133957 -0.011598544 -0.0012811263 -0.52865165 -0.24149238
28187500000 -0.45407251 0.071972892 -0.011078632 -7.2580122e-005 -0.011549506 -0.00046084743 -0.52730983 -0.22247322
28206250000 -0.43804261 0.085718229 -0.010964686 0.0012827867 -0.011531978 0.00051456527 -0.52987152 -0.19974014
28225000000 -0.41872731 0.10226519 -0.010525535 0.0014585509 -0.011492704 0.00089157408 -0.53460562 -0.1799455
28243750000 -0.39696804 0.11986993 -0.010844909 0.0023489816 -0.011820215 0.002220534 -0.5375421 -0.16577891
28262500000 -0.37735006 0.13613209 -0.010735142 0.0029813228 -0.010976486 0.0032470813 -0.53503603 -0.1503595
28281250000 -0.35800982 0.14986327 -0.011193932 0.0045111603 -0.011492183 0.0040459163 -0.52629328 -0.13076521
28300000000 -0.33564043 0.16001789 -0.0099826641 0.0052920924 -0.010805019 0.0053197746 -0.52089143 -0.10671389
