!Keysight Technologies,N5225A,MY55451607,A.10.47.03
!Date: Friday, May 31, 2024 11:14:08
!Correction: S11(Full 2 Port(1,2)) 
!S21(Full 2 Port(1,2)) 
!S12(Full 2 Port(1,2)) 
!S22(Full 2 Port(1,2)) 
!S2P File: Measurements: S11, S21, S12, S22:
# Hz S  RI   R 50
25000000000 -0.17436029 -0.36843255 2.1634969e-006 6.2384213e-005 6.692177e-005 4.3479849e-005 0.7144416 -0.51539159
25018750000 -0.18451665 -0.35025787 2.4531193e-005 6.0987031e-006 4.450995e-005 -7.923074e-006 0.71617085 -0.52640897
25037500000 -0.19105543 -0.32917592 -2.2296685e-005 5.717899e-005 3.2375847e-005 -2.9187972e-006 0.72017306 -0.5320769
25056250000 -0.19873664 -0.30698824 2.1097781e-005 7.1408285e-005 7.7964185e-005 -5.715021e-006 0.71975017 -0.53156024
25075000000 -0.20924684 -0.28450641 7.9849749e-005 6.1195089e-005 6.211226e-005 1.2841404e-006 0.7130729 -0.530325
25093750000 -0.21624167 -0.26535976 1.0866063e-005 4.8029387e-006 5.4527245e-005 -5.167288e-005 0.70607567 -0.53455597
25112500000 -0.21997452 -0.25201896 5.1535244e-005 5.2289455e-005 5.9901733e-005 2.5671641e-005 0.70431483 -0.54352152
25131250000 -0.2181174 -0.23711564 8.5665044e-005 4.2751481e-006 5.3674379e-005 -4.0678005e-005 0.70743477 -0.55211586
25150000000 -0.21224912 -0.21894772 5.7668942e-005 1.1716718e-006 4.2082131e-005 -4.771557e-005 0.70958209 -0.55569887
25168750000 -0.20742491 -0.19700673 4.2284933e-005 -3.0484582e-005 -2.9609486e-005 -5.6939443e-005 0.70630467 -0.55552745
25187500000 -0.20692217 -0.17637306 7.6908815e-005 -7.517085e-005 1.9924448e-005 -6.1581231e-005 0.6999715 -0.55683786
25206250000 -0.20761155 -0.16075647 3.3054279e-005 -6.2868923e-005 -3.9169521e-005 -3.5089757e-005 0.69564283 -0.56190032
25225000000 -0.20716348 -0.14919256 1.5848862e-005 -5.6658537e-005 -1.1322304e-005 -3.4341389e-005 0.69489211 -0.56836563
25243750000 -0.19992295 -0.14027329 -2.9812878e-005 -4.6310775e-005 -3.5427482e-005 -1.7888842e-005 0.69378579 -0.57267791
25262500000 -0.19069506 -0.13146913 -1.1176805e-005 -5.6945501e-005 -3.5738914e-005 -2.3722261e-005 0.68856978 -0.575046
25281250000 -0.18229325 -0.12005423 -7.3872223e-005 1.1164233e-005 -5.7768721e-005 3.5424891e-005 0.68076199 -0.57869631
25300000000 -0.17448507 -0.10725715 2.0889152e-005 -6.6069209e-005 -5.6532945e-006 -1.4627641e-005 0.67597568 -0.58519393
25318750000 -0.16920011 -0.099855326 -2.1861119e-005 -4.5845212e-005 -2.0751015e-005 1.922923e-005 0.67679387 -0.5922097
25337500000 -0.16236359 -0.092487998 -1.4862585e-005 -1.7822449e-005 -3.9650975e-005 1.3463636e-005 0.67920411 -0.59579313
25356250000 -0.15450761 -0.088447995 3.0012977e-006 -1.7907372e-005 2.5721227e-005 1.6453052e-005 0.67751855 -0.59588689
25375000000 -0.14607035 -0.083553992 -4.2844713e-005 -5.0594113e-005 3.1981674e-006 -4.2260923e-005 0.67054272 -0.59622234
25393750000 -0.13765885 -0.079418287 -0.00012144691 6.3213461e-006 -5.1637817e-005 9.1047214e-006 0.66329694 -0.60054076
25412500000 -0.13080306 -0.076565929 -2.6851181e-005 -1.2336259e-005 2.3844619e-005 9.3205963e-006 0.66083151 -0.60845691
25431250000 -0.12135571 -0.076647125 -8.1579899e-005 3.6433619e-005 -4.0735453e-005 5.3451855e-005 0.66279864 -0.61569983
25450000000 -0.11267787 -0.076207004 -5.456639e-005 1.2774454e-005 -7.9529718e-006 2.9720346e-005 0.66428012 -0.61865646
25468750000 -0.10245443 -0.074069813 -4.0364284e-005 7.2873365e-005 -1.0012783e-005 3.1518863e-005 0.66128218 -0.61832297
25487500000 -0.095544025 -0.068600349 -4.4017317e-005 8.7712731e-005 -6.1847368e-006 3.6920377e-005 0.65521342 -0.61878705
25506250000 -0.091729574 -0.064228423 -2.6348534e-005 8.9366607e-005 -2.1430864e-005 5.9125039e-005 0.65062141 -0.62293708
25525000000 -0.090833209 -0.063818194 6.5351865e-005 9.2411246e-005 3.7956161e-005 4.092438e-005 0.65004677 -0.62966287
25543750000 -0.088586919 -0.065580614 3.7296883e-005 7.0405731e-005 4.9459981e-005 1.6455671e-005 0.65142357 -0.63527596
25562500000 -0.085454009 -0.070103489 5.0492799e-005 3.9858201e-005 1.2958782e-005 -3.2348471e-005 0.65060282 -0.63729608
25581250000 -0.078818761 -0.070397153 5.862816e-005 7.6720033e-005 8.6514292e-006 6.3243504e-005 0.64664781 -0.63752574
25600000000 -0.07226751 -0.068473741 5.8242491e-005 -2.8793786e-005 -5.8345455e-007 -3.3765831e-005 0.6421656 -0.63895082
25618750000 -0.067379959 -0.066460527 7.75519e-005 2.7434864e-005 4.4180855e-005 -4.9160903e-005 0.63988137 -0.64326268
25637500000 -0.068158515 -0.064378947 4.6683348e-005 -1.1057528e-005 -1.4768672e-005 -4.1272178e-005 0.63924277 -0.64875799
25656250000 -0.069540747 -0.062321197 5.7321024e-005 -2.6712652e-005 4.9387872e-006 -3.401659e-005 0.63750529 -0.65197974
25675000000 -0.067932524 -0.062855817 6.8802867e-005 2.3776656e-005 2.6958953e-005 -1.2298765e-005 0.63257551 -0.65291524
25693750000 -0.066400185 -0.066389345 2.3604956e-005 -6.3107356e-005 -1.7735753e-006 1.1595666e-005 0.62623012 -0.654046
25712500000 -0.06273853 -0.064940579 1.2436873e-005 -4.214916e-005 4.9363407e-006 -2.3911748e-006 0.62168103 -0.65820616
25731250000 -0.058425047 -0.063119464 6.1854247e-005 -5.1418705e-005 -5.6308832e-006 2.8577277e-005 0.62096608 -0.6649186
25750000000 -0.056261867 -0.059633009 -5.5453893e-005 -4.7024652e-005 -4.9305101e-005 5.3901436e-005 0.62218964 -0.6708464
25768750000 -0.052539315 -0.057121869 6.2350264e-006 -8.0377067e-005 -1.0314654e-005 -3.3196728e-005 0.62224019 -0.67262304
25787500000 -0.049022712 -0.054750055 -4.4719221e-005 -5.5633722e-005 1.0588092e-005 -1.3731034e-005 0.61965883 -0.67133284
25806250000 -0.044353347 -0.052538756 -1.2703597e-006 -3.2511125e-005 4.117579e-005 2.2729098e-005 0.6159988 -0.67083704
25825000000 -0.040726598 -0.049764298 -5.5424847e-005 -6.6835768e-005 -4.4047924e-006 -9.3330582e-006 0.61343062 -0.67403269
25843750000 -0.036400642 -0.045425165 -1.219461e-005 -3.4648612e-005 2.1049776e-005 -1.8038176e-005 0.61268866 -0.68003273
25862500000 -0.031638853 -0.042805225 -6.5435175e-005 -1.0059997e-006 -3.6515867e-005 -1.6677694e-005 0.61170048 -0.68452656
25881250000 -0.027407384 -0.042050134 -3.9387698e-005 2.3541052e-005 2.1462154e-005 -6.5634113e-006 0.60917026 -0.68562907
25900000000 -0.021042006 -0.039898027 -2.4116196e-005 -3.245074e-007 -1.2698131e-006 -1.6625592e-006 0.60524112 -0.68572336
25918750000 -0.01308657 -0.03619184 -7.6212462e-005 6.4755277e-006 -5.3999047e-005 2.5048765e-005 0.60236061 -0.68824089
25937500000 -0.0077543617 -0.032001931 -3.7931135e-005 3.5026802e-005 1.5496931e-005 5.8243795e-006 0.60178947 -0.69343734
25956250000 -0.0047254348 -0.027403962 -4.3708846e-005 1.585793e-005 -2.9636825e-005 -3.0265981e-005 0.60255158 -0.69837189
25975000000 9.863131e-005 -0.02839447 -2.9255476e-005 4.9326409e-005 -7.4283057e-006 2.6820782e-005 0.6024521 -0.69970995
25993750000 0.0048498809 -0.032247089 -1.6650805e-005 3.5893376e-005 -3.4378114e-005 -9.9556455e-006 0.60019559 -0.69783258
26012500000 0.013765849 -0.034445081 2.9444075e-006 3.7634676e-005 -3.4289504e-005 -3.1175645e-005 0.59689784 -0.69691479
26031250000 0.027103893 -0.032949492 -1.7787645e-006 5.4378106e-005 -1.9967423e-005 5.3853e-005 0.59435338 -0.69981521
26050000000 0.038272705 -0.030685127 5.4832388e-005 5.4299431e-005 -7.4872401e-007 4.1709165e-005 0.59302539 -0.70497692
26068750000 0.044831559 -0.029529776 8.8284898e-005 1.5896923e-005 -9.315062e-006 -1.6191661e-005 0.59053975 -0.7090385
26087500000 0.051028814 -0.03121558 5.1427796e-005 4.5638611e-005 4.3590648e-005 6.3944011e-005 0.58588868 -0.71036488
26106250000 0.059046153 -0.034887016 6.3624531e-005 -1.2740973e-005 -4.5602305e-006 6.206079e-006 0.58015627 -0.71165955
26125000000 0.070379086 -0.038921591 5.1040824e-005 -1.5553889e-005 4.270417e-005 -1.9977462e-005 0.57597017 -0.71605486
26143750000 0.081056535 -0.042807903 7.8197982e-006 -7.2458446e-005 1.2314173e-005 7.0136875e-006 0.57477576 -0.72221369
26162500000 0.088018201 -0.047464203 1.6625552e-005 -5.6907629e-005 5.592578e-006 -4.3556315e-006 0.57518071 -0.72587413
26181250000 0.095994622 -0.054933969 3.0142007e-006 -5.9464714e-005 -1.8501425e-005 3.2228047e-005 0.57344633 -0.72477049
26200000000 0.10393925 -0.064505346 6.0907773e-006 -3.3582928e-005 -1.2813069e-005 5.6239143e-005 0.56836826 -0.72253567
26218750000 0.11699888 -0.072591074 -1.5339514e-006 -6.2309118e-005 4.8944562e-006 -1.1843819e-005 0.56262493 -0.72427016
26237500000 0.12627833 -0.081300549 -3.2231503e-005 -3.9898041e-005 -3.567004e-005 3.271523e-005 0.56065279 -0.73114198
26256250000 0.13178289 -0.088169008 -1.8745037e-005 1.256887e-006 1.9169833e-005 2.5255533e-005 0.56307918 -0.73756576
26275000000 0.13703167 -0.097164825 -2.8899418e-005 1.1401788e-005 5.2588981e-005 3.4481338e-005 0.56591213 -0.7379185
26293750000 0.14156629 -0.11243353 -1.2658166e-005 -7.3273818e-006 2.8305432e-005 2.1487842e-005 0.56360495 -0.73290217
26312500000 0.14746238 -0.12611318 -5.1223662e-005 4.783921e-005 1.6320006e-005 -3.9496304e-006 0.55555367 -0.72999787
26331250000 0.15632193 -0.13916928 -3.2071523e-005 2.3614717e-005 2.8283177e-005 -3.4833971e-005 0.54649681 -0.73505735
26350000000 0.16159889 -0.15035518 -4.0588009e-005 5.4488482e-005 5.1118139e-005 -6.1897697e-007 0.54273289 -0.74550962
26368750000 0.16274023 -0.15843135 4.289524e-006 9.5642044e-006 1.7087061e-005 -8.4712679e-005 0.54487783 -0.75254768
26387500000 0.16262707 -0.1696137 -1.267516e-005 5.9706083e-005 1.8936327e-005 -2.7717395e-005 0.54743606 -0.75053763
26406250000 0.15984517 -0.18357524 -2.4872086e-005 1.0851069e-005 -1.8074023e-005 -8.8360524e-005 0.54520446 -0.74373192
26425000000 0.1575174 -0.19897009 5.0755203e-005 2.0711621e-005 -4.7734916e-006 -3.9877585e-005 0.53792703 -0.74160975
26443750000 0.15681037 -0.21559002 4.7347443e-005 1.6968317e-005 4.8761893e-007 -5.9907619e-005 0.53104734 -0.74803811
26462500000 0.15569769 -0.22971855 9.4331317e-006 -5.3139133e-006 -5.045443e-005 -3.7777048e-005 0.52955896 -0.75772619
26481250000 0.15589564 -0.24099816 2.4957992e-005 2.0109492e-005 -3.0000749e-005 -1.2993445e-005 0.5317601 -0.76201612
26500000000 0.15421887 -0.2515294 1.7099539e-005 -2.0901074e-005 -1.6530841e-005 -3.0092606e-005 0.532345 -0.7585972
26518750000 0.1484319 -0.26225841 -2.8606219e-005 -2.6003276e-005 -7.2667564e-005 -2.602383e-005 0.52670783 -0.75391316
26537500000 0.1393684 -0.27333656 -1.1156814e-005 1.2093131e-005 -1.7396447e-005 -3.4018649e-005 0.51749635 -0.7555657
26556250000 0.13374878 -0.28580716 9.8501033e-008 -6.7257744e-005 -7.2521347e-005 -3.8447411e-005 0.5097574 -0.76449263
26575000000 0.12978566 -0.29891425 7.4733616e-005 -2.7774835e-005 -5.2098876e-005 4.9586408e-005 0.5076344 -0.77348757
26593750000 0.12510453 -0.3088792 -6.2368754e-006 -1.6226568e-005 -1.2255496e-005 9.3787581e-005 0.50954646 -0.7759732
26612500000 0.1184504 -0.31679851 -1.7523962e-005 3.3265314e-005 -4.3222957e-005 -3.9779214e-005 0.5100854 -0.77257735
26631250000 0.10933279 -0.32585862 -4.415313e-005 -9.2961664e-006 -3.9771247e-005 8.02008e-005 0.50637221 -0.76964766
26650000000 0.100855 -0.33622855 -0.00012131904 -7.4976422e-005 -9.8376413e-006 0.00013422854 0.50056809 -0.77225661
26668750000 0.095570266 -0.34524709 -5.2587438e-005 3.9994043e-006 6.9686852e-005 2.7527503e-007 0.49773538 -0.77893484
26687500000 0.09341979 -0.35118511 -5.1515268e-005 2.6149024e-005 6.6088214e-005 4.5620698e-005 0.49849427 -0.7831766
26706250000 0.085720643 -0.3539589 4.2678184e-005 -2.1412978e-005 5.2051109e-005 3.5672179e-005 0.50002784 -0.78174394
26725000000 0.074865274 -0.35417801 3.5614669e-006 3.5007393e-005 8.40273e-007 4.5058881e-005 0.49847889 -0.7780742
26743750000 0.0617311 -0.35890749 4.8984457e-005 0.00010887747 9.6098294e-005 -3.6775749e-005 0.49347052 -0.77798927
26762500000 0.052162893 -0.36872509 9.7913449e-005 -6.1062019e-005 7.8643126e-005 -1.9231795e-005 0.48820114 -0.78315997
26781250000 0.046402805 -0.37745062 -2.2803664e-005 2.3135766e-005 -3.6436391e-005 -2.6052609e-005 0.48579708 -0.78919202
26800000000 0.041919325 -0.38047257 7.0427937e-005 -3.0344339e-005 4.3691383e-005 -4.2090152e-005 0.48585099 -0.79136115
26818750000 0.036115035 -0.38099661 -6.1761719e-005 -2.1986558e-005 3.5943769e-005 -4.517239e-005 0.48503137 -0.78950858
26837500000 0.025819626 -0.38333255 1.4282593e-005 1.2121922e-005 5.4415999e-005 -2.9029852e-005 0.48150188 -0.78912276
26856250000 0.016665969 -0.38910079 3.7602018e-005 2.5836559e-006 2.6597587e-005 -0.00011595376 0.47717535 -0.79291803
26875000000 0.010171754 -0.39779827 8.265496e-006 -3.2993546e-005 -3.1639203e-005 -0.00012527575 0.47590333 -0.79839331
26893750000 0.0060637263 -0.40410253 3.1724649e-005 -1.0324377e-006 -6.1279998e-006 -0.00010104782 0.47805157 -0.799685
26912500000 0.0025883703 -0.4052957 7.7774508e-005 -1.2792603e-005 -6.3929685e-005 -6.4709835e-005 0.47935981 -0.79534334
26931250000 -0.0020668975 -0.40514192 1.4206536e-005 1.1703843e-005 -3.8029113e-005 -5.7938014e-005 0.47615463 -0.79125738
26950000000 -0.010888654 -0.40927327 -3.1119831e-005 -2.7928034e-005 -0.00013527875 1.8709528e-005 0.4692564 -0.79295433
26968750000 -0.021514289 -0.41343907 -2.8798918e-006 1.8290119e-005 -4.6025452e-005 2.0253572e-006 0.46379533 -0.80041593
26987500000 -0.027045565 -0.41810355 -1.6814831e-005 -1.7699895e-005 -2.8418934e-005 7.4303455e-007 0.46277028 -0.80662817
27006250000 -0.033517309 -0.42350006 -3.9148981e-005 1.1527323e-005 -0.0001197712 4.4237735e-005 0.46365032 -0.80610764
27025000000 -0.040779661 -0.4272646 1.6254797e-005 -2.4008137e-005 -2.7779119e-005 4.5992881e-005 0.46223345 -0.80152297
27043750000 -0.049320418 -0.43203208 -2.1202159e-005 -2.7771119e-005 -2.7292685e-005 9.4220377e-005 0.45673919 -0.79974043
27062500000 -0.058459699 -0.43758693 -2.0106556e-005 -3.4774806e-005 -4.2604192e-005 8.5427282e-006 0.45095488 -0.80513763
27081250000 -0.067796558 -0.44363782 4.1471765e-005 4.1656385e-006 -3.3191409e-005 9.8924393e-005 0.44985947 -0.81233162
27100000000 -0.075380906 -0.44874406 -5.9371716e-005 -1.7189675e-005 1.3554921e-005 6.4378088e-005 0.45303059 -0.81420392
27118750000 -0.08301907 -0.45395377 5.0411654e-005 -1.7373013e-005 1.59052e-005 -2.2784556e-005 0.45522067 -0.80880415
27137500000 -0.090458132 -0.45967925 -1.9213088e-005 3.8585527e-005 6.0492293e-005 -2.4310491e-005 0.45193529 -0.80307502
27156250000 -0.099882238 -0.46209449 4.4679211e-005 3.40925e-005 5.631796e-005 1.9382729e-005 0.44490987 -0.80395055
27175000000 -0.10865084 -0.46349999 4.0642117e-005 -1.4219549e-005 7.9549709e-006 -3.9479928e-005 0.43872282 -0.81069964
27193750000 -0.11908696 -0.46533641 -1.6173213e-005 3.6026544e-005 3.7682748e-005 -4.1943949e-005 0.43756598 -0.81643826
27212500000 -0.13339226 -0.46888351 3.5248484e-006 -7.6136403e-006 2.8011174e-005 -2.0676162e-005 0.43799525 -0.81643987
27231250000 -0.14723243 -0.47217345 9.2276205e-006 -1.9309769e-005 1.6308717e-005 5.1969502e-005 0.43504947 -0.81269038
27250000000 -0.15919915 -0.47635928 1.611076e-005 2.5263887e-005 3.5509107e-005 -8.3932151e-005 0.42789394 -0.81250435
27268750000 -0.17028044 -0.47934186 -1.27376e-005 4.4322212e-005 1.5518519e-005 -7.6609329e-005 0.4210217 -0.81877762
27287500000 -0.18284932 -0.48065016 7.133605e-005 -1.2540531e-005 3.0090445e-005 -3.903692e-005 0.41917369 -0.82576495
27306250000 -0.1959161 -0.47991917 -3.5665595e-005 -2.8968678e-005 5.9916129e-005 -3.0394825e-005 0.42180586 -0.82724577
27325000000 -0.20935827 -0.4807629 -2.09072e-006 -5.7663234e-005 -1.3844429e-005 3.2584012e-006 0.42306545 -0.82206118
27343750000 -0.22412264 -0.4798196 -1.1005711e-005 -6.5774504e-005 -6.0627364e-005 -2.438386e-005 0.41882494 -0.81720304
27362500000 -0.23594552 -0.47890535 2.7929898e-005 2.0301875e-005 2.8854383e-005 -5.7525107e-005 0.41054982 -0.81885666
27381250000 -0.24924546 -0.47842246 -2.3362374e-005 7.3672227e-006 -3.6053396e-005 -4.4014385e-005 0.40431824 -0.82581502
27400000000 -0.26360679 -0.47591096 3.2890755e-005 -9.5861906e-006 2.4986373e-005 1.6581906e-005 0.40380055 -0.83110821
27418750000 -0.27693716 -0.47236437 -6.1320054e-005 2.6469113e-005 1.8380977e-005 6.0128823e-005 0.40554884 -0.83006406
27437500000 -0.28996184 -0.46927476 -4.5978308e-005 2.6534053e-006 -2.2799918e-006 -1.7107506e-005 0.40377 -0.8254776
27456250000 -0.30388719 -0.46593785 -1.6222073e-005 9.1489368e-005 -1.8074372e-005 2.7161115e-005 0.39575073 -0.82416439
27475000000 -0.31878975 -0.46066624 6.9218731e-005 -2.7227245e-005 6.2108258e-005 9.4746203e-005 0.38618743 -0.83061361
27493750000 -0.332055 -0.45627084 2.4018393e-005 4.0060619e-005 -3.31132e-005 1.5792823e-005 0.3828367 -0.83893925
27512500000 -0.34478432 -0.45393267 2.7184708e-005 2.0804529e-005 3.6634588e-005 -1.3349245e-005 0.38664114 -0.84201443
27531250000 -0.35545224 -0.44853443 1.5052661e-005 2.1698237e-005 -1.1470896e-005 2.9198824e-005 0.39134818 -0.83682084
27550000000 -0.36572585 -0.44164717 9.0419046e-005 -6.6940393e-006 7.3303891e-005 -3.9708462e-005 0.38982847 -0.83016342
27568750000 -0.37774274 -0.43190131 -6.1364881e-005 3.0732197e-005 4.8674683e-005 4.00342e-005 0.38177198 -0.82963401
27587500000 -0.39123964 -0.42210835 2.4101397e-005 -4.5190798e-005 6.0374561e-005 2.6413076e-005 0.37371486 -0.83606911
27606250000 -0.40468127 -0.41425624 -5.8846552e-005 2.5791611e-005 1.5468777e-005 -0.00015068392 0.3718074 -0.84268194
27625000000 -0.41647345 -0.40540549 -1.852781e-006 -6.0329814e-005 -2.1970591e-006 -3.8607563e-005 0.37490979 -0.84284472
27643750000 -0.42659858 -0.3934423 2.1179148e-005 -3.0320276e-005 4.5047233e-005 -5.9993545e-006 0.37461928 -0.83837539
27662500000 -0.4377692 -0.38139617 -5.4730663e-006 -7.0456786e-005 -1.7245784e-005 -5.1096285e-005 0.36667901 -0.83673882
27681250000 -0.45262066 -0.36978409 1.7273134e-005 -1.3568709e-005 -4.0920928e-005 6.3999205e-006 0.35603723 -0.84255409
27700000000 -0.46627188 -0.35973656 8.0492122e-005 3.2294676e-005 2.8618591e-005 4.8395974e-005 0.3515172 -0.85243529
27718750000 -0.47680247 -0.35347617 -5.826393e-005 -1.0308842e-005 2.0562617e-005 4.2364982e-006 0.35596186 -0.85705531
27737500000 -0.48338318 -0.34406647 1.1590078e-005 -3.2958702e-005 -1.3432737e-005 -4.6330933e-005 0.36245686 -0.85247195
27756250000 -0.48823106 -0.32888773 -0.00011112076 7.1453601e-006 -4.3404267e-005 1.1370419e-005 0.36213785 -0.84495533
27775000000 -0.49566197 -0.31217563 -7.4582582e-005 5.8016707e-005 -2.1591464e-005 1.9470113e-005 0.35414493 -0.84392208
27793750000 -0.50699574 -0.29570436 4.0145569e-005 1.4125936e-005 7.4268646e-006 -3.5491841e-005 0.34730685 -0.85030198
27812500000 -0.51626652 -0.28108492 2.3957067e-005 8.5210435e-005 2.6677699e-005 5.2893363e-005 0.34804854 -0.85688329
27831250000 -0.52171063 -0.26919594 -9.3041372e-006 -6.0087666e-005 1.0312654e-005 -3.1903859e-005 0.35401419 -0.85584074
27850000000 -0.52589911 -0.25365567 -7.0392511e-005 -3.0348788e-006 -4.2983047e-005 -4.227522e-005 0.35560811 -0.84862894
27868750000 -0.52892405 -0.23471114 1.3922049e-005 -1.8985346e-006 8.6543347e-005 -3.9893443e-006 0.34821659 -0.84473884
27887500000 -0.53425914 -0.21569075 3.254044e-005 6.8295594e-005 -7.96322e-006 5.5626744e-005 0.3377364 -0.84956896
27906250000 -0.54155695 -0.19827087 -6.2584229e-005 3.8760911e-005 -3.0169898e-005 -1.3947701e-005 0.33394828 -0.85876167
27925000000 -0.54618186 -0.18180427 -1.8167178e-005 7.8637728e-005 3.8708968e-006 4.4272569e-005 0.33976042 -0.86184263
27943750000 -0.54737866 -0.16648531 -1.1692327e-005 -5.0457013e-005 -2.9894421e-005 -7.2217304e-006 0.34647253 -0.85516071
27962500000 -0.54832113 -0.14960311 -3.3370157e-005 3.3688691e-005 -9.4068819e-006 1.0865209e-005 0.34429944 -0.84634495
27981250000 -0.54738337 -0.13084009 1.0517751e-005 -8.432904e-006 4.2739255e-005 1.5328154e-006 0.33425608 -0.84506434
28000000000 -0.54434097 -0.11244178 -1.3706982e-005 4.0130635e-005 3.886137e-005 4.001331e-005 0.32635745 -0.85232979
28018750000 -0.54197848 -0.092921548 6.8345274e-005 6.8303234e-005 3.5362071e-005 -5.4935321e-005 0.32822102 -0.85932791
28037500000 -0.53716415 -0.071665213 -4.3808291e-006 2.2746194e-006 2.9340988e-005 -1.2788178e-005 0.33541748 -0.85781348
