!Keysight Technologies,N5225A,MY55451607,A.10.47.03
!Date: Friday, May 31, 2024 11:04:07
!Correction: S11(Full 2 Port(1,2)) 
!S21(Full 2 Port(1,2)) 
!S12(Full 2 Port(1,2)) 
!S22(Full 2 Port(1,2)) 
!S2P File: Measurements: S11, S21, S12, S22:
# Hz S  RI   R 50
25000000000 -0.097063251 -0.44137755 5.7792577e-006 1.3876919e-005 -2.7185721e-005 3.5656212e-005 0.74731022 -0.55548161
25018750000 -0.11618346 -0.42331979 2.3859873e-005 4.5283664e-006 -1.8288923e-006 3.8212635e-005 0.74621469 -0.56118935
25037500000 -0.13089962 -0.40757152 -4.3741064e-005 -1.7890774e-005 -2.5042102e-005 1.3370979e-005 0.7444126 -0.56516552
25056250000 -0.14142886 -0.39261216 1.0327051e-005 3.0886808e-005 -1.2371678e-006 2.031067e-005 0.74126309 -0.56814045
25075000000 -0.14869741 -0.37528479 1.8758436e-005 -4.6678942e-006 3.0821229e-005 8.9132336e-006 0.73769701 -0.57160163
25093750000 -0.15337792 -0.35448807 -1.9794856e-005 -8.4686999e-006 1.3093857e-005 1.0351075e-005 0.73515296 -0.57616431
25112500000 -0.16014202 -0.33365828 -1.3536781e-005 2.9422059e-005 7.4170212e-006 4.5759312e-005 0.73372263 -0.58158934
25131250000 -0.16435234 -0.31546685 3.1707172e-005 1.3193113e-005 1.7942681e-005 4.0400169e-005 0.73184198 -0.58716631
25150000000 -0.16642343 -0.29844987 2.0889564e-005 -6.8512063e-006 -2.4749959e-006 -9.7000529e-006 0.72911644 -0.59305108
25168750000 -0.16420165 -0.28139693 -2.1379648e-005 -6.7746041e-006 3.1920001e-005 -1.7834185e-005 0.72629493 -0.59890944
25187500000 -0.1625403 -0.26222309 4.9610835e-006 1.7359056e-006 -1.8320628e-005 -2.6209151e-005 0.72480941 -0.603576
25206250000 -0.16275436 -0.24166033 4.2900574e-005 -2.0478667e-005 5.727306e-006 1.3231773e-005 0.72368634 -0.60582179
25225000000 -0.1630322 -0.22661826 6.5219052e-007 -8.3387204e-006 1.1320825e-005 -1.3957554e-005 0.71974826 -0.60676557
25243750000 -0.16334032 -0.21690352 1.7143484e-005 5.9649547e-006 -2.0561617e-006 -1.0349766e-005 0.71272868 -0.60936731
25262500000 -0.15790074 -0.20766264 7.2187872e-006 -2.8910323e-005 5.4583711e-006 -4.6661011e-005 0.7046662 -0.61622
25281250000 -0.14706558 -0.19932269 -1.9906118e-005 -5.7076359e-005 -4.5026154e-006 -3.5403496e-005 0.70017093 -0.6256451
25300000000 -0.13641809 -0.18750972 -1.1426941e-005 4.0857285e-005 -9.6842441e-006 1.7821672e-005 0.70071894 -0.63292009
25318750000 -0.128884 -0.17380558 -1.3552837e-005 2.009385e-005 -1.4144939e-005 -9.7872032e-007 0.70262539 -0.63491046
25337500000 -0.12239556 -0.16201414 -6.753171e-006 -4.1332329e-005 7.7025015e-006 -4.6753135e-005 0.70018268 -0.63379163
25356250000 -0.11864986 -0.15714751 -2.1008138e-005 -2.1556427e-005 -3.8709553e-005 3.4305736e-005 0.69329727 -0.63559407
25375000000 -0.11327055 -0.15373713 -1.2223316e-005 1.4020578e-005 -3.7239446e-005 2.5199008e-005 0.68655628 -0.64281213
25393750000 -0.10366788 -0.15014334 3.6535715e-005 2.3950553e-005 -1.588604e-005 9.8606688e-006 0.68474203 -0.65153545
25412500000 -0.091013566 -0.14717123 4.860337e-006 1.8646608e-005 -3.4095701e-005 2.1494478e-005 0.68681842 -0.6565398
25431250000 -0.080723658 -0.14256603 5.5379373e-006 -3.0514559e-006 -5.4664711e-006 1.7636714e-005 0.68718678 -0.6565547
25450000000 -0.073568188 -0.13506025 -2.1466538e-005 3.8735037e-005 -3.2242544e-005 -2.1104554e-006 0.68242544 -0.65594262
25468750000 -0.066545211 -0.12855905 1.8491555e-005 2.3755689e-005 -1.6716667e-005 2.9179875e-005 0.67527372 -0.6596905
25487500000 -0.06306918 -0.12655318 6.811119e-006 2.7160766e-005 1.2189505e-005 -4.9084844e-007 0.67121077 -0.66688937
25506250000 -0.061406083 -0.12567134 6.2451181e-006 -2.3283548e-005 2.2334722e-005 -2.4463312e-005 0.67224497 -0.67280495
25525000000 -0.057668455 -0.12508537 2.8818235e-005 2.5471978e-005 1.3143351e-005 6.8880304e-006 0.67392081 -0.67437875
25543750000 -0.053181384 -0.12623906 2.7153387e-006 2.6990538e-006 1.2649237e-005 5.0864769e-006 0.67151898 -0.67380691
25562500000 -0.047796663 -0.12579001 2.9951207e-005 -7.0965757e-007 1.5809777e-005 2.4881174e-005 0.66508251 -0.67619193
25581250000 -0.043009188 -0.12305099 7.6581227e-006 -7.5670441e-006 2.1277197e-005 -3.9676666e-005 0.65958601 -0.68303114
25600000000 -0.037661221 -0.12105102 2.0495472e-005 -2.3035096e-005 -1.0469485e-005 -2.43472e-005 0.65877604 -0.68977034
25618750000 -0.033997279 -0.11891774 1.4489741e-005 -2.2704671e-005 1.9654756e-006 -1.3070961e-005 0.66043806 -0.69239026
25637500000 -0.032360416 -0.11440061 2.7700733e-006 -1.7252227e-005 -1.2858266e-005 -2.6275595e-005 0.65886021 -0.69147581
25656250000 -0.03024791 -0.11128175 -8.4234935e-006 1.3493635e-005 1.1333912e-005 -1.5005852e-005 0.65203178 -0.69129568
25675000000 -0.03302129 -0.1118877 -3.9194561e-005 -2.1717902e-005 -4.1303858e-005 -2.1641558e-006 0.64341927 -0.69558501
25693750000 -0.035027467 -0.11438051 -1.8593775e-005 -9.362062e-006 1.6266571e-006 2.4818322e-005 0.63833529 -0.70254052
25712500000 -0.031455249 -0.11788074 5.9899321e-006 1.1260214e-005 2.3173463e-006 2.8653969e-005 0.63792837 -0.70815659
25731250000 -0.025048293 -0.12089342 -7.1617269e-006 -3.011015e-006 -1.5356392e-005 1.177401e-006 0.63872719 -0.71021539
25750000000 -0.017711887 -0.11664736 -1.6230328e-005 1.4349387e-005 -6.0691732e-006 2.7040191e-005 0.63659269 -0.71113098
25768750000 -0.011360923 -0.10808165 1.5888293e-006 4.3110649e-005 1.3336755e-005 1.4637574e-005 0.63204652 -0.71408206
25787500000 -0.012177031 -0.10300487 -1.9640968e-006 -2.8065659e-005 3.8788894e-005 5.6002032e-006 0.62886214 -0.71923637
25806250000 -0.014054547 -0.098685749 -3.6132707e-005 -1.7506678e-005 -1.0345232e-005 -7.4062659e-006 0.628824 -0.72321308
25825000000 -0.012173599 -0.098371878 -1.5847463e-006 2.1155305e-005 -2.140408e-006 2.5154886e-005 0.62926334 -0.72389567
25843750000 -0.0055617746 -0.099109538 1.307097e-005 -2.3140335e-006 1.0133052e-005 -2.6288071e-006 0.62717724 -0.72352856
25862500000 -0.0015373173 -0.09833131 2.6901338e-005 1.5839511e-005 1.8080949e-005 -8.6220098e-006 0.62157518 -0.72545171
25881250000 0.0025221161 -0.091486521 7.2385569e-006 2.5426743e-005 -2.1662705e-005 3.448821e-005 0.61618102 -0.73067433
25900000000 0.0080545535 -0.086369388 2.1403661e-005 1.6197428e-005 1.1273119e-005 2.3973451e-005 0.61399221 -0.73665959
25918750000 0.012239406 -0.084564641 -1.4255677e-005 -6.5856657e-005 -1.8285358e-005 -1.3677542e-005 0.61524415 -0.73938346
25937500000 0.018676978 -0.080725424 -1.8421879e-005 -1.1010641e-005 6.6143625e-006 2.4807949e-005 0.61559856 -0.738774
25956250000 0.026636297 -0.077270202 -7.4062937e-006 -1.8021434e-005 1.4342681e-005 -7.1309605e-006 0.61220348 -0.73845732
25975000000 0.032558795 -0.075266317 2.6894073e-005 -1.6973383e-006 2.0176141e-005 2.8000853e-005 0.60680884 -0.74136752
25993750000 0.0358545 -0.074131131 7.1967215e-006 -9.9685803e-006 4.0804367e-005 -5.4130464e-006 0.60367996 -0.74680245
26012500000 0.042375077 -0.074855156 3.3409091e-005 -1.5467971e-005 1.3199154e-005 -3.0323752e-005 0.60426301 -0.7505787
26031250000 0.053131908 -0.077719301 1.766015e-006 -2.2623999e-005 8.6766804e-006 -2.9100724e-005 0.6053803 -0.75050086
26050000000 0.062990367 -0.079047702 2.7786977e-005 -3.4725741e-005 1.013886e-005 -1.3882715e-005 0.60221469 -0.74883235
26068750000 0.074429452 -0.074765399 -2.7815599e-006 -3.808831e-005 -1.1098215e-005 -2.142401e-005 0.59419179 -0.75003153
26087500000 0.08481089 -0.073576652 -4.4646031e-006 -3.3937085e-005 -3.008205e-005 -1.093663e-005 0.58532226 -0.75579792
26106250000 0.089942947 -0.073363349 5.7427615e-006 -2.8272661e-005 -3.8878778e-005 1.6585809e-005 0.58104211 -0.76364475
26125000000 0.098349363 -0.076780133 -1.6007236e-005 -1.778873e-007 -3.3109111e-005 5.1959009e-006 0.58194989 -0.7687543
26143750000 0.10816071 -0.084473178 -2.1836684e-005 5.1346092e-006 1.0940182e-005 -2.851407e-005 0.58335435 -0.76852101
26162500000 0.1195293 -0.09439759 6.031044e-006 2.7087794e-005 -5.4100434e-005 -1.0951829e-005 0.58040166 -0.76581556
26181250000 0.1307129 -0.099798851 7.1367012e-006 -1.2082065e-005 6.1872865e-006 -6.4977776e-006 0.57283437 -0.76516008
26200000000 0.14429392 -0.10435422 -5.5604673e-008 3.3767543e-007 -2.1004157e-006 1.5491318e-005 0.56569964 -0.7698468
26218750000 0.15369353 -0.10952109 2.4424469e-005 -1.6220336e-005 -6.915147e-006 -1.9331244e-005 0.56354779 -0.77691603
26237500000 0.15884097 -0.11504519 3.826818e-007 4.4537765e-006 -1.9964595e-005 1.3599437e-006 0.56643182 -0.78130639
26256250000 0.16454884 -0.12366626 -2.2220604e-006 4.0510684e-005 5.1057559e-006 3.858831e-005 0.56919086 -0.78055769
26275000000 0.17196228 -0.13783781 9.3437675e-006 -1.6861084e-005 1.5717826e-005 -6.1577425e-006 0.56698543 -0.77677757
26293750000 0.1796934 -0.14948067 -1.0015079e-005 2.8119468e-005 -1.3223269e-005 1.5384238e-006 0.55968714 -0.77553421
26312500000 0.18857664 -0.15925999 1.2848422e-005 1.7123943e-005 2.0038129e-005 9.8250403e-006 0.55180365 -0.77904499
26331250000 0.19484332 -0.1688247 5.385135e-006 -2.0424621e-005 3.0625295e-005 -2.0545014e-005 0.5473637 -0.78554845
26350000000 0.19612522 -0.18082598 2.2062677e-005 2.7029408e-005 6.4414503e-006 -1.5143958e-005 0.54675823 -0.79000211
26368750000 0.1966252 -0.19540313 -7.9160873e-006 -2.0089374e-005 -1.9436402e-005 -1.2192639e-005 0.54667765 -0.79027903
26387500000 0.19848794 -0.21143389 2.2826891e-005 -3.3449699e-006 4.264622e-006 -2.2369955e-005 0.54354501 -0.78801686
26406250000 0.20012221 -0.22504516 -8.7114604e-006 -3.7662983e-005 -2.3200498e-006 -6.7777087e-006 0.53835022 -0.78735107
26425000000 0.20055728 -0.23496708 -1.5038799e-005 -2.5871563e-005 -5.5654214e-006 6.3372559e-006 0.53306776 -0.79009986
26443750000 0.19948456 -0.24728577 1.2675058e-005 -2.4955423e-005 2.1580025e-005 -2.4552741e-005 0.52992851 -0.79432756
26462500000 0.19690044 -0.26284805 2.3101882e-005 -1.7212999e-005 1.5305552e-005 -3.808871e-005 0.52827805 -0.79754442
26481250000 0.19487339 -0.27842855 -2.6788464e-005 -8.6170276e-006 -4.4539115e-006 -4.306974e-005 0.52555746 -0.79890817
26500000000 0.19552687 -0.28991422 -1.4570259e-005 -1.1107594e-005 9.3457021e-007 -8.8422994e-006 0.52139956 -0.79973119
26518750000 0.19414704 -0.29880774 9.6261056e-006 5.3528292e-005 -4.2420939e-005 1.3536627e-005 0.5158751 -0.80125403
26537500000 0.1870705 -0.30797115 1.7510267e-005 4.5576693e-005 3.4475349e-006 -3.326176e-005 0.51078695 -0.80358338
26556250000 0.1775988 -0.31788942 5.4318341e-005 -3.4205794e-005 1.3716646e-005 3.0614331e-006 0.50585395 -0.80631864
26575000000 0.17065877 -0.33160505 -3.2320921e-005 3.4190252e-005 -1.5888065e-005 4.6878972e-006 0.501333 -0.80925393
26593750000 0.165511 -0.343481 5.9504793e-005 2.3408207e-005 -2.1381529e-005 -7.1699073e-006 0.49826473 -0.81268495
26612500000 0.15957254 -0.35092115 -6.0242801e-005 4.341548e-007 6.6771781e-006 1.6981347e-005 0.49720451 -0.81573993
26631250000 0.15306142 -0.35503316 -7.0137767e-006 4.2518714e-005 -5.9227212e-005 5.8926224e-005 0.49723709 -0.81703413
26650000000 0.14427222 -0.36312255 -1.6208494e-005 4.4988788e-005 -1.7856495e-005 9.3764047e-006 0.49586505 -0.81614405
26668750000 0.13569383 -0.37247494 5.3882712e-008 1.0778419e-005 -6.7016888e-005 -2.0964377e-005 0.49232933 -0.81556302
26687500000 0.12967832 -0.38018298 8.3843937e-005 1.2666582e-005 3.8959646e-005 3.2778156e-005 0.48729891 -0.81730509
26706250000 0.12393957 -0.38518736 2.7436514e-005 -1.3428805e-005 4.6237175e-005 1.6302287e-005 0.48422721 -0.82161593
26725000000 0.11553373 -0.386951 -1.9198245e-005 -1.6915163e-005 1.7780294e-005 -6.8910299e-006 0.48384428 -0.82503647
26743750000 0.10369355 -0.39090884 -1.1340845e-006 -4.4881058e-006 1.2396642e-005 8.2385828e-005 0.48424006 -0.82526004
26762500000 0.092616111 -0.39668101 -3.564484e-005 1.1215877e-005 -1.136463e-005 2.474718e-005 0.48181766 -0.82317281
26781250000 0.085108839 -0.40342575 1.2102131e-005 -7.3718489e-005 2.689845e-005 1.142845e-005 0.47588152 -0.82265753
26800000000 0.080731429 -0.40847316 -2.3304205e-005 1.5867523e-005 2.902382e-006 9.44971e-006 0.46917841 -0.82596588
26818750000 0.075451992 -0.41086945 -4.5359928e-005 7.8210171e-005 -0.00010467978 -1.94637e-005 0.46574131 -0.83142394
26837500000 0.06659238 -0.41284177 7.0813476e-005 -1.7792405e-005 -3.3709133e-005 -6.1805666e-005 0.46662512 -0.83559632
26856250000 0.057433061 -0.41770259 5.1321e-005 -1.3320279e-005 1.2645853e-005 1.3973463e-005 0.46811426 -0.83520949
26875000000 0.049812578 -0.42492178 -6.1187238e-005 -2.2182378e-005 -6.5501074e-005 -2.2497406e-005 0.46693322 -0.83247298
26893750000 0.043295212 -0.43322167 5.198448e-006 3.1687367e-005 1.2895269e-005 -2.8974833e-005 0.46213478 -0.83071929
26912500000 0.038685583 -0.43667188 -5.3666445e-005 -9.0383346e-006 -3.8356524e-005 -2.958868e-005 0.45724666 -0.83215696
26931250000 0.034878191 -0.4398753 -4.6344288e-005 -3.547457e-006 -5.0053703e-005 -5.6171779e-005 0.45465988 -0.83604193
26950000000 0.030133517 -0.44262519 -4.7286416e-005 0.00010284745 3.7557234e-005 2.6793305e-005 0.45391819 -0.83869159
26968750000 0.02435087 -0.44646493 -9.4771917e-007 -6.3408484e-006 -3.8217902e-005 1.5186402e-005 0.45316604 -0.83885008
26987500000 0.017416963 -0.45116699 9.1142709e-007 -3.6084759e-005 6.6437065e-006 -3.4186846e-006 0.44945636 -0.83781946
27006250000 0.010506954 -0.45727447 4.2684467e-005 5.7177978e-005 -5.6896793e-006 -1.8510538e-005 0.44396785 -0.83809918
27025000000 0.00088722381 -0.46354029 8.2860439e-005 2.0724792e-005 2.1358069e-006 -2.1426562e-005 0.43967026 -0.84041518
27043750000 -0.0065249484 -0.46950808 3.2608153e-007 6.7765424e-005 -1.7371307e-005 3.2325872e-005 0.43852422 -0.84339887
27062500000 -0.01501232 -0.47510466 -3.5122514e-005 -3.8903477e-006 1.0281503e-005 4.3600223e-005 0.43956071 -0.84471679
27081250000 -0.024139902 -0.48089433 5.2142012e-005 4.0310926e-005 -8.291926e-006 -4.1117593e-005 0.4399384 -0.84366107
27100000000 -0.03412788 -0.48655161 2.0293002e-005 3.7193374e-006 -2.3169323e-005 2.8163373e-005 0.43778974 -0.84190083
27118750000 -0.043110657 -0.49322534 4.6091202e-005 4.4990113e-005 -3.136379e-005 4.4767629e-007 0.43408248 -0.84152347
27137500000 -0.050064258 -0.50000989 3.3634438e-005 5.5462965e-006 8.9099893e-005 -3.1407453e-005 0.43049783 -0.842893
27156250000 -0.056550145 -0.50478065 5.2298656e-005 -3.6276935e-005 6.2861371e-005 -2.4528374e-005 0.42848986 -0.84437919
27175000000 -0.065027542 -0.50618362 1.3930903e-005 2.7227392e-005 3.0836323e-005 2.8684291e-005 0.4263044 -0.84448785
27193750000 -0.077430017 -0.50669706 2.7437874e-005 -4.7610189e-005 -3.4581331e-005 -2.4554751e-005 0.42304528 -0.84397614
27212500000 -0.094111726 -0.50932807 2.720846e-005 1.9067402e-005 6.4777574e-005 -5.2179679e-005 0.41767192 -0.84464544
27231250000 -0.11020638 -0.51519364 -1.0085859e-005 2.1999789e-005 -7.0912306e-006 -8.4991858e-005 0.41241258 -0.84706348
27250000000 -0.12111525 -0.52185076 2.7198743e-005 -1.6263819e-005 -3.9783663e-006 -6.8879795e-005 0.40886673 -0.84967977
27268750000 -0.1288987 -0.52593416 -2.7540516e-005 7.6320594e-006 -1.2042425e-005 -7.0697082e-005 0.40698588 -0.85114515
27287500000 -0.13771269 -0.5245741 -3.1120984e-005 3.7990798e-005 1.104085e-005 -2.5814748e-007 0.40497413 -0.85029256
27306250000 -0.15019922 -0.52070391 1.290871e-005 -3.420236e-005 2.0125013e-005 -6.7724155e-005 0.40162471 -0.84980315
27325000000 -0.16726686 -0.51960826 7.7660234e-006 -3.846845e-005 4.6303834e-005 -1.5027234e-005 0.39787167 -0.85051626
27343750000 -0.18410307 -0.52125436 -3.5784174e-006 -9.1123729e-005 1.121698e-005 -4.8109738e-005 0.39479879 -0.8525219
27362500000 -0.19758293 -0.52473199 -7.0198526e-005 -3.1291213e-005 -8.8217072e-005 -2.5974383e-005 0.39262095 -0.85322684
27381250000 -0.20813535 -0.5249517 6.0370407e-006 4.9128528e-005 2.8208702e-005 4.787686e-005 0.38972738 -0.85242486
27400000000 -0.2195792 -0.51991397 6.0600541e-005 -3.0493728e-005 1.4516826e-005 3.85274e-005 0.38541999 -0.85174382
27418750000 -0.2335826 -0.51278585 2.0175808e-005 3.6313573e-005 6.1636556e-006 2.1875121e-005 0.38039529 -0.85350579
27437500000 -0.25122631 -0.50773352 -4.750281e-005 2.9092309e-006 -2.4801791e-005 -5.2972293e-005 0.37674734 -0.85695171
27456250000 -0.26937199 -0.50611174 1.5777016e-005 -7.2669959e-006 1.6755288e-005 7.6388576e-005 0.37417451 -0.85972536
27475000000 -0.28345084 -0.50357938 5.5340031e-005 2.8672441e-005 3.0012458e-005 1.7191853e-005 0.37200394 -0.86036468
27493750000 -0.29382575 -0.50140673 -8.4699759e-006 3.2938271e-005 -3.9509352e-005 -2.7093884e-005 0.36922437 -0.85926265
27512500000 -0.30630058 -0.49515948 -2.4039422e-005 -3.770347e-005 -2.9134708e-005 -3.3508706e-005 0.36635774 -0.85885632
27531250000 -0.32055232 -0.48659462 -1.1856558e-005 7.120661e-005 -1.5415248e-005 2.7241416e-005 0.36432958 -0.859878
27550000000 -0.33736044 -0.4794791 -6.7837627e-006 3.4558019e-005 7.7657656e-005 6.5493325e-005 0.36362451 -0.86112684
27568750000 -0.35441482 -0.47571903 3.299228e-005 -2.7422835e-005 1.8757766e-005 3.7870515e-005 0.36246586 -0.8608219
27587500000 -0.36815831 -0.47185063 2.1364111e-005 -1.4054809e-005 9.3173494e-006 6.6040819e-005 0.35878527 -0.85929936
27606250000 -0.37707588 -0.46434468 -1.845137e-005 -2.0814638e-005 -1.7559036e-005 1.8052906e-005 0.35320669 -0.8587479
27625000000 -0.38516787 -0.45245197 -5.3747619e-005 -2.178738e-005 0.00010487823 -6.8139721e-005 0.34792587 -0.86063051
27643750000 -0.39774236 -0.43765548 -5.7520494e-005 -9.6787689e-006 7.6025186e-005 -4.8152662e-005 0.34391645 -0.86435455
27662500000 -0.41433471 -0.42478114 1.0806565e-005 -3.964104e-005 -3.7374135e-005 -1.109504e-005 0.34116489 -0.86742562
27681250000 -0.43033251 -0.41660911 3.0572723e-005 -3.7329755e-005 3.337023e-005 -6.2027779e-005 0.33886129 -0.86920625
27700000000 -0.4411093 -0.41149521 3.3252778e-005 -9.0915171e-005 1.4449871e-005 -3.0436147e-005 0.33638206 -0.87017721
27718750000 -0.44763389 -0.40385064 -8.4002473e-005 -9.1493195e-005 -6.7196248e-005 -5.1662406e-005 0.33458966 -0.87101442
27737500000 -0.45446828 -0.38820997 2.1548132e-005 -8.7628767e-005 7.8693311e-006 2.505187e-005 0.3337867 -0.87162781
27756250000 -0.46621311 -0.36795351 3.3611607e-006 -1.7198131e-006 1.2761593e-005 -3.6889578e-005 0.33368388 -0.87170589
27775000000 -0.48170152 -0.34993884 3.6440965e-006 2.5585532e-006 8.8178676e-006 1.0736981e-005 0.33340222 -0.87113625
27793750000 -0.49552295 -0.3385641 -6.3684485e-005 -3.911024e-005 -8.2931772e-005 -2.2419181e-005 0.33242059 -0.87058115
27812500000 -0.50303304 -0.32879522 3.5317848e-005 3.8887974e-005 3.3744353e-005 -4.4748758e-005 0.33062023 -0.87064523
27831250000 -0.50474656 -0.315162 8.3377883e-005 -6.243506e-006 -3.6706278e-006 1.2398919e-005 0.32899281 -0.8712098
27850000000 -0.50793946 -0.29429963 -1.1386841e-007 -4.9943334e-005 -2.0230262e-005 -4.4556378e-005 0.32735747 -0.8716861
27868750000 -0.51640624 -0.27182242 -5.4016346e-005 4.9412785e-005 3.7452653e-005 2.8294811e-005 0.32539472 -0.87244892
27887500000 -0.52784884 -0.25512514 6.2499319e-005 5.0405101e-006 3.3068172e-005 1.4582385e-005 0.32371169 -0.87339407
27906250000 -0.53597659 -0.24291921 -4.9887301e-005 2.4582918e-005 -4.4545428e-005 -7.4110521e-006 0.32283714 -0.87445742
27925000000 -0.53739768 -0.22818691 7.8464545e-006 3.6628815e-006 5.6886958e-005 5.7162135e-005 0.3236126 -0.87453145
27943750000 -0.53475434 -0.20759514 5.0699935e-005 -4.8003876e-005 2.8601922e-005 4.5045734e-005 0.32425815 -0.87283176
27962500000 -0.53625512 -0.18128134 -1.5747151e-005 4.8353602e-005 2.0949679e-005 3.140395e-005 0.32319313 -0.87026697
27981250000 -0.54111135 -0.15712911 -1.3096703e-005 2.7992215e-005 -2.0122459e-005 3.0117881e-005 0.3202047 -0.86836708
28000000000 -0.54495186 -0.13959445 4.2039039e-005 3.0593666e-005 -2.5339956e-005 -1.6167227e-005 0.31673366 -0.86800039
28018750000 -0.54375285 -0.12487204 1.8539873e-005 2.826876e-005 3.0180938e-005 -9.7758093e-006 0.31477487 -0.86900854
28037500000 -0.53715801 -0.10637066 5.0628823e-005 -3.5884885e-005 3.4483085e-006 -6.2528088e-005 0.31372786 -0.87042445
28056250000 -0.52972478 -0.081355162 3.3346674e-005 -2.0878571e-005 3.3845565e-005 -7.589029e-005 0.31226313 -0.87076491
