! Created Mon Jun 10 12:48:45 2024
# hz S ma R 50
! 5 Port Network Data from SP1.SP block
! freq  magS11  angS11  magS12  angS12  magS13  angS13  magS14  angS14  
!       magS15  angS15  
!       magS21  angS21  magS22  angS22  magS23  angS23  
!       magS24  angS24  magS25  angS25  
!       magS31  angS31  magS32  angS32  
!       magS33  angS33  magS34  angS34  magS35  angS35  
!       magS41  angS41  
!       magS42  angS42  magS43  angS43  magS44  angS44  magS45  angS45  
!       magS51  angS51  magS52  angS52  magS53  angS53  magS54  angS54  
!       magS55  angS55  
!     
2.1e+10       0.251172402        -98.8915161        0.426974877        -153.198057        0.426974877        -153.198057        0.426974877        -153.198057
                      0.426974877        -153.198057
                      0.426974877        -153.198057       0.0272476063        -69.5590152        0.142001429         18.4600966       0.0615077286         -49.602059
                     0.0615077286         -49.602059
                      0.426974877        -153.198057        0.142001429         18.4600966       0.0272476063        -69.5590152       0.0615077286         -49.602059
                     0.0615077286         -49.602059
                      0.426974877        -153.198057       0.0615077286         -49.602059       0.0615077286         -49.602059       0.0272476063        -69.5590152
                      0.142001429         18.4600966
                      0.426974877        -153.198057       0.0615077286         -49.602059       0.0615077286         -49.602059        0.142001429         18.4600966
                     0.0272476063        -69.5590152

2.1025e+10       0.239282414        -102.002742        0.428430475         -157.84489        0.428430475         -157.84489        0.428430475         -157.84489
                      0.428430475         -157.84489
                      0.428430475         -157.84489       0.0286531719        -73.1167119        0.135751739         14.9775906       0.0593383295        -56.9162716
                     0.0593383295        -56.9162716
                      0.428430475         -157.84489        0.135751739         14.9775906       0.0286531719        -73.1167119       0.0593383295        -56.9162716
                     0.0593383295        -56.9162716
                      0.428430475         -157.84489       0.0593383295        -56.9162716       0.0593383295        -56.9162716       0.0286531719        -73.1167119
                      0.135751739         14.9775906
                      0.428430475         -157.84489       0.0593383295        -56.9162716       0.0593383295        -56.9162716        0.135751739         14.9775906
                     0.0286531719        -73.1167119

2.105e+10        0.22746679        -105.064917        0.429805236        -162.501877        0.429805236        -162.501877        0.429805236        -162.501877
                      0.429805236        -162.501877
                      0.429805236        -162.501877       0.0299403244         -76.792041        0.129434463         11.4606365       0.0571586481         -64.243999
                     0.0571586481         -64.243999
                      0.429805236        -162.501877        0.129434463         11.4606365       0.0299403244         -76.792041       0.0571586481         -64.243999
                     0.0571586481         -64.243999
                      0.429805236        -162.501877       0.0571586481         -64.243999       0.0571586481         -64.243999       0.0299403244         -76.792041
                      0.129434463         11.4606365
                      0.429805236        -162.501877       0.0571586481         -64.243999       0.0571586481         -64.243999        0.129434463         11.4606365
                     0.0299403244         -76.792041

2.1075e+10       0.215771999        -108.073811        0.431095781        -167.167728        0.431095781        -167.167728        0.431095781        -167.167728
                      0.431095781        -167.167728
                      0.431095781        -167.167728       0.0311011557        -80.5495626        0.123063734         7.90646628       0.0549681745        -71.5860165
                     0.0549681745        -71.5860165
                      0.431095781        -167.167728        0.123063734         7.90646628       0.0311011557        -80.5495626       0.0549681745        -71.5860165
                     0.0549681745        -71.5860165
                      0.431095781        -167.167728       0.0549681745        -71.5860165       0.0549681745        -71.5860165       0.0311011557        -80.5495626
                      0.123063734         7.90646628
                      0.431095781        -167.167728       0.0549681745        -71.5860165       0.0549681745        -71.5860165        0.123063734         7.90646628
                     0.0311011557        -80.5495626

2.11e+10       0.204243549        -111.025301        0.432299845        -171.841167        0.432299845        -171.841167        0.432299845        -171.841167
                      0.432299845        -171.841167
                      0.432299845        -171.841167       0.0321296054        -84.3620464        0.116653862         4.31073187       0.0527665709        -78.9432041
                     0.0527665709        -78.9432041
                      0.432299845        -171.841167        0.116653862         4.31073187       0.0321296054        -84.3620464       0.0527665709        -78.9432041
                     0.0527665709        -78.9432041
                      0.432299845        -171.841167       0.0527665709        -78.9432041       0.0527665709        -78.9432041       0.0321296054        -84.3620464
                      0.116653862         4.31073187
                      0.432299845        -171.841167       0.0527665709        -78.9432041       0.0527665709        -78.9432041        0.116653862         4.31073187
                     0.0321296054        -84.3620464

2.1125e+10       0.192925525        -113.915502        0.433416254        -176.520953        0.433416254        -176.520953        0.433416254        -176.520953
                      0.433416254        -176.520953
                      0.433416254        -176.520953       0.0330212267        -88.2085216        0.110219082        0.667139917        0.050553666        -86.3166011
                      0.050553666        -86.3166011
                      0.433416254        -176.520953        0.110219082        0.667139917       0.0330212267        -88.2085216        0.050553666        -86.3166011
                      0.050553666        -86.3166011
                      0.433416254        -176.520953        0.050553666        -86.3166011        0.050553666        -86.3166011       0.0330212267        -88.2085216
                      0.110219082        0.667139917
                      0.433416254        -176.520953        0.050553666        -86.3166011        0.050553666        -86.3166011        0.110219082        0.667139917
                     0.0330212267        -88.2085216

2.115e+10       0.181860155        -116.740921        0.434444868         178.794105        0.434444868         178.794105        0.434444868         178.794105
                      0.434444868         178.794105
                      0.434444868         178.794105       0.0337729758        -92.0728691        0.103773364        -3.03302654       0.0483294427        -93.7074701
                     0.0483294427        -93.7074701
                      0.434444868         178.794105        0.103773364        -3.03302654       0.0337729758        -92.0728691       0.0483294427        -93.7074701
                     0.0483294427        -93.7074701
                      0.434444868         178.794105       0.0483294427        -93.7074701       0.0483294427        -93.7074701       0.0337729758        -92.0728691
                      0.103773364        -3.03302654
                      0.434444868         178.794105       0.0483294427        -93.7074701       0.0483294427        -93.7074701        0.103773364        -3.03302654
                     0.0337729758        -92.0728691

2.1175e+10       0.171087357        -119.498676        0.435386522         174.105137        0.435386522         174.105137        0.435386522         174.105137
                      0.435386522         174.105137
                      0.435386522         174.105137       0.0343830547        -95.9428626       0.0973302987        -6.80154935       0.0460940281        -101.117377
                     0.0460940281        -101.117377
                      0.435386522         174.105137       0.0973302987        -6.80154935       0.0343830547        -95.9428626       0.0460940281        -101.117377
                     0.0460940281        -101.117377
                      0.435386522         174.105137       0.0460940281        -101.117377       0.0460940281        -101.117377       0.0343830547        -95.9428626
                     0.0973302987        -6.80154935
                      0.435386522         174.105137       0.0460940281        -101.117377       0.0460940281        -101.117377       0.0973302987        -6.80154935
                     0.0343830547        -95.9428626

2.12e+10       0.160644329        -122.186755        0.436242929         169.413195        0.436242929         169.413195        0.436242929         169.413195
                      0.436242929         169.413195
                      0.436242929         169.413195       0.0348507239        -99.8094355       0.0909030689        -10.6541556       0.0438476767         -108.54829
                     0.0438476767         -108.54829
                      0.436242929         169.413195       0.0909030689        -10.6541556       0.0348507239        -99.8094355       0.0438476767         -108.54829
                     0.0438476767         -108.54829
                      0.436242929         169.413195       0.0438476767         -108.54829       0.0438476767         -108.54829       0.0348507239        -99.8094355
                     0.0909030689        -10.6541556
                      0.436242929         169.413195       0.0438476767         -108.54829       0.0438476767         -108.54829       0.0909030689        -10.6541556
                     0.0348507239        -99.8094355

2.1225e+10       0.150565119         -124.80436        0.437016602          164.71925        0.437016602          164.71925        0.437016602          164.71925
                      0.437016602          164.71925
                      0.437016602          164.71925       0.0351761697        -103.666219       0.0845045416        -14.6117532         0.04159076        -116.002708
                       0.04159076        -116.002708
                      0.437016602          164.71925       0.0845045416        -14.6117532       0.0351761697        -103.666219         0.04159076        -116.002708
                       0.04159076        -116.002708
                      0.437016602          164.71925         0.04159076        -116.002708         0.04159076        -116.002708       0.0351761697        -103.666219
                     0.0845045416        -14.6117532
                      0.437016602          164.71925         0.04159076        -116.002708         0.04159076        -116.002708       0.0845045416        -14.6117532
                     0.0351761697        -103.666219

2.125e+10       0.140880248         -127.35233         0.43771073         160.024175         0.43771073         160.024175         0.43771073         160.024175
                       0.43771073         160.024175
                       0.43771073         160.024175       0.0353603279         -107.50917       0.0781475011        -18.7022046       0.0393237512        -123.483827
                     0.0393237512        -123.483827
                       0.43771073         160.024175       0.0781475011        -18.7022046       0.0353603279         -107.50917       0.0393237512        -123.483827
                     0.0393237512        -123.483827
                       0.43771073         160.024175       0.0393237512        -123.483827       0.0393237512        -123.483827       0.0353603279         -107.50917
                     0.0781475011        -18.7022046
                       0.43771073         160.024175       0.0393237512        -123.483827       0.0393237512        -123.483827       0.0781475011        -18.7022046
                     0.0353603279         -107.50917

2.1275e+10       0.131616331        -129.833668        0.438329076         155.328746        0.438329076         155.328746        0.438329076         155.328746
                      0.438329076         155.328746
                      0.438329076         155.328746       0.0354047367        -111.336352       0.0718450946        -22.9629274       0.0370472147        -130.995763
                     0.0370472147        -130.995763
                      0.438329076         155.328746       0.0718450946        -22.9629274       0.0354047367        -111.336352       0.0370472147        -130.995763
                     0.0370472147        -130.995763
                      0.438329076         155.328746       0.0370472147        -130.995763       0.0370472147        -130.995763       0.0354047367        -111.336352
                     0.0718450946        -22.9629274
                      0.438329076         155.328746       0.0370472147        -130.995763       0.0370472147        -130.995763       0.0718450946        -22.9629274
                     0.0354047367        -111.336352

2.13e+10       0.122795745        -132.254172        0.438875859         150.633638        0.438875859         150.633638        0.438875859         150.633638
                      0.438875859         150.633638
                      0.438875859         150.633638        0.035311385        -115.147788       0.0656115741        -27.4447962       0.0347617987        -138.543868
                     0.0347617987        -138.543868
                      0.438875859         150.633638       0.0656115741        -27.4447962        0.035311385        -115.147788       0.0347617987        -138.543868
                     0.0347617987        -138.543868
                      0.438875859         150.633638       0.0347617987        -138.543868       0.0347617987        -138.543868        0.035311385        -115.147788
                     0.0656115741        -27.4447962
                      0.438875859         150.633638       0.0347617987        -138.543868       0.0347617987        -138.543868       0.0656115741        -27.4447962
                      0.035311385        -115.147788

2.1325e+10        0.11443634        -134.623185        0.439355629         145.939417        0.439355629         145.939417        0.439355629         145.939417
                      0.439355629         145.939417
                      0.439355629         145.939417       0.0350825558        -118.945393       0.0594635011        -32.2181239         0.03246823        -146.135165
                       0.03246823        -146.135165
                      0.439355629         145.939417       0.0594635011        -32.2181239       0.0350825558        -118.945393         0.03246823        -146.135165
                       0.03246823        -146.135165
                      0.439355629         145.939417         0.03246823        -146.135165         0.03246823        -146.135165       0.0350825558        -118.945393
                     0.0594635011        -32.2181239
                      0.439355629         145.939417         0.03246823        -146.135165         0.03246823        -146.135165       0.0594635011        -32.2181239
                     0.0350825558        -118.945393

2.135e+10         0.1065512        -136.954461        0.439773163         141.246548        0.439773163         141.246548        0.439773163         141.246548
                      0.439773163         141.246548
                      0.439773163         141.246548       0.0347207095        -122.732995       0.0534217129        -37.3820304       0.0301673191        -153.778989
                     0.0301673191        -153.778989
                      0.439773163         141.246548       0.0534217129        -37.3820304       0.0347207095        -122.732995       0.0301673191        -153.778989
                     0.0301673191        -153.778989
                      0.439773163         141.246548       0.0301673191        -153.778989       0.0301673191        -153.778989       0.0347207095        -122.732995
                     0.0534217129        -37.3820304
                      0.439773163         141.246548       0.0301673191        -153.778989       0.0301673191        -153.778989       0.0534217129        -37.3820304
                     0.0347207095        -122.732995

2.1375e+10      0.0991485276         -139.26712        0.440133344         136.555393        0.440133344         136.555393        0.440133344         136.555393
                      0.440133344         136.555393
                      0.440133344         136.555393       0.0342283427        -126.516407        0.047514577        -43.0793773        0.027859971        -161.487941
                      0.027859971        -161.487941
                      0.440133344         136.555393        0.047514577        -43.0793773       0.0342283427        -126.516407        0.027859971        -161.487941
                      0.027859971        -161.487941
                      0.440133344         136.555393        0.027859971        -161.487941        0.027859971        -161.487941       0.0342283427        -126.516407
                      0.047514577        -43.0793773
                      0.440133344         136.555393        0.027859971        -161.487941        0.027859971        -161.487941        0.047514577        -43.0793773
                     0.0342283427        -126.516407

2.14e+10      0.0922316712        -141.586665        0.440441055         131.866216        0.440441055         131.866216        0.440441055         131.866216
                      0.440441055         131.866216
                      0.440441055         131.866216       0.0336078731        -130.303596       0.0417835604         -49.520776       0.0255472124        -169.279366
                     0.0255472124        -169.279366
                      0.440441055         131.866216       0.0417835604         -49.520776       0.0336078731        -130.303596       0.0255472124        -169.279366
                     0.0255472124        -169.279366
                      0.440441055         131.866216       0.0255472124        -169.279366       0.0255472124        -169.279366       0.0336078731        -130.303596
                     0.0417835604         -49.520776
                      0.440441055         131.866216       0.0255472124        -169.279366       0.0255472124        -169.279366       0.0417835604         -49.520776
                     0.0336078731        -130.303596

2.1425e+10      0.0857993176        -143.946009        0.440701098         127.179187        0.440701098         127.179187        0.440701098         127.179187
                      0.440701098         127.179187
                      0.440701098         127.179187       0.0328616015        -134.104988       0.0362930284        -57.0225551       0.0232302452        -177.177697
                     0.0232302452        -177.177697
                      0.440701098         127.179187       0.0362930284        -57.0225551       0.0328616015        -134.104988       0.0232302452        -177.177697
                     0.0232302452        -177.177697
