! Created Mon Jun 10 12:43:52 2024
# hz S ma R 50
! 5 Port Network Data from SP1.SP block
! freq  magS11  angS11  magS12  angS12  magS13  angS13  magS14  angS14  
!       magS15  angS15  
!       magS21  angS21  magS22  angS22  magS23  angS23  
!       magS24  angS24  magS25  angS25  
!       magS31  angS31  magS32  angS32  
!       magS33  angS33  magS34  angS34  magS35  angS35  
!       magS41  angS41  
!       magS42  angS42  magS43  angS43  magS44  angS44  magS45  angS45  
!       magS51  angS51  magS52  angS52  magS53  angS53  magS54  angS54  
!       magS55  angS55  
!     
2.1e+10        0.33049458        -75.7343686        0.415272738        -133.256788        0.415272738        -133.256788        0.415272738        -133.256788
                      0.415272738        -133.256788
                      0.415272738        -133.256788       0.0747446353        -42.4423524        0.151926571         33.6132397       0.0717478944         -19.873637
                     0.0717478944         -19.873637
                      0.415272738        -133.256788        0.151926571         33.6132397       0.0747446353        -42.4423524       0.0717478944         -19.873637
                     0.0717478944         -19.873637
                      0.415272738        -133.256788       0.0717478944         -19.873637       0.0717478944         -19.873637       0.0747446353        -42.4423524
                      0.151926571         33.6132397
                      0.415272738        -133.256788       0.0717478944         -19.873637       0.0717478944         -19.873637        0.151926571         33.6132397
                     0.0747446353        -42.4423524

2.1025e+10       0.316977146        -79.0707886        0.417431678        -137.790446        0.417431678        -137.790446        0.417431678        -137.790446
                      0.417431678        -137.790446
                      0.417431678        -137.790446       0.0741228469        -44.9529059        0.145151943         30.6162171       0.0694707621        -27.2199064
                     0.0694707621        -27.2199064
                      0.417431678        -137.790446        0.145151943         30.6162171       0.0741228469        -44.9529059       0.0694707621        -27.2199064
                     0.0694707621        -27.2199064
                      0.417431678        -137.790446       0.0694707621        -27.2199064       0.0694707621        -27.2199064       0.0741228469        -44.9529059
                      0.145151943         30.6162171
                      0.417431678        -137.790446       0.0694707621        -27.2199064       0.0694707621        -27.2199064        0.145151943         30.6162171
                     0.0741228469        -44.9529059

2.105e+10       0.303035264        -82.4103473        0.419561041        -142.346762        0.419561041        -142.346762        0.419561041        -142.346762
                      0.419561041        -142.346762
                      0.419561041        -142.346762       0.0732889363        -47.5307838        0.138326602         27.6419076       0.0671779316        -34.5838416
                     0.0671779316        -34.5838416
                      0.419561041        -142.346762        0.138326602         27.6419076       0.0732889363        -47.5307838       0.0671779316        -34.5838416
                     0.0671779316        -34.5838416
                      0.419561041        -142.346762       0.0671779316        -34.5838416       0.0671779316        -34.5838416       0.0732889363        -47.5307838
                      0.138326602         27.6419076
                      0.419561041        -142.346762       0.0671779316        -34.5838416       0.0671779316        -34.5838416        0.138326602         27.6419076
                     0.0732889363        -47.5307838

2.1075e+10       0.288715108        -85.7488743         0.42164603        -146.924827         0.42164603        -146.924827         0.42164603        -146.924827
                       0.42164603        -146.924827
                       0.42164603        -146.924827       0.0722349433        -50.1600331        0.131466881         24.6989929       0.0648681431        -41.9664126
                     0.0648681431        -41.9664126
                       0.42164603        -146.924827        0.131466881         24.6989929       0.0722349433        -50.1600331       0.0648681431        -41.9664126
                     0.0648681431        -41.9664126
                       0.42164603        -146.924827       0.0648681431        -41.9664126       0.0648681431        -41.9664126       0.0722349433        -50.1600331
                      0.131466881         24.6989929
                       0.42164603        -146.924827       0.0648681431        -41.9664126       0.0648681431        -41.9664126        0.131466881         24.6989929
                     0.0722349433        -50.1600331

2.11e+10       0.274067579        -89.0814824        0.423672436        -151.523531        0.423672436        -151.523531        0.423672436        -151.523531
                      0.423672436        -151.523531
                      0.423672436        -151.523531       0.0709570718        -52.8236773        0.124591282         21.7967626       0.0625403361        -49.3685629
                     0.0625403361        -49.3685629
                      0.423672436        -151.523531        0.124591282         21.7967626       0.0709570718        -52.8236773       0.0625403361        -49.3685629
                     0.0625403361        -49.3685629
                      0.423672436        -151.523531       0.0625403361        -49.3685629       0.0625403361        -49.3685629       0.0709570718        -52.8236773
                      0.124591282         21.7967626
                      0.423672436        -151.523531       0.0625403361        -49.3685629       0.0625403361        -49.3685629        0.124591282         21.7967626
                     0.0709570718        -52.8236773

2.1125e+10       0.259148165        -92.4024829        0.425626906        -156.141578        0.425626906        -156.141578        0.425626906        -156.141578
                      0.425626906        -156.141578
                      0.425626906        -156.141578       0.0694557361        -55.5037783         0.11772005         18.9450985       0.0601936915        -56.7912407
                     0.0601936915        -56.7912407
                      0.425626906        -156.141578         0.11772005         18.9450985       0.0694557361        -55.5037783       0.0601936915        -56.7912407
                     0.0601936915        -56.7912407
                      0.425626906        -156.141578       0.0601936915        -56.7912407       0.0601936915        -56.7912407       0.0694557361        -55.5037783
                       0.11772005         18.9450985
                      0.425626906        -156.141578       0.0601936915        -56.7912407       0.0601936915        -56.7912407         0.11772005         18.9450985
                     0.0694557361        -55.5037783

2.115e+10       0.244016663        -95.7052509        0.427497147        -160.777502        0.427497147        -160.777502        0.427497147        -160.777502
                      0.427497147        -160.777502
                      0.427497147        -160.777502       0.0677354895        -58.1813154        0.110874644         16.1544634       0.0578276492        -64.2354435
                     0.0578276492        -64.2354435
                      0.427497147        -160.777502        0.110874644         16.1544634       0.0677354895        -58.1813154       0.0578276492        -64.2354435
                     0.0578276492        -64.2354435
                      0.427497147        -160.777502       0.0578276492        -64.2354435       0.0578276492        -64.2354435       0.0677354895        -58.1813154
                      0.110874644         16.1544634
                      0.427497147        -160.777502       0.0578276492        -64.2354435       0.0578276492        -64.2354435        0.110874644         16.1544634
                     0.0677354895        -58.1813154

2.1175e+10       0.228736808        -98.9820644        0.429272148        -165.429691        0.429272148        -165.429691        0.429272148        -165.429691
                      0.429272148        -165.429691
                      0.429272148        -165.429691       0.0658049164        -60.8360663        0.104077196         13.4359024       0.0554419272        -71.7022769
                     0.0554419272        -71.7022769
                      0.429272148        -165.429691        0.104077196         13.4359024       0.0658049164        -60.8360663       0.0554419272        -71.7022769
                     0.0554419272        -71.7022769
                      0.429272148        -165.429691       0.0554419272        -71.7022769       0.0554419272        -71.7022769       0.0658049164        -60.8360663
                      0.104077196         13.4359024
                      0.429272148        -165.429691       0.0554419272        -71.7022769       0.0554419272        -71.7022769        0.104077196         13.4359024
                     0.0658049164        -60.8360663

2.12e+10       0.213375801        -102.223889        0.430942387        -170.096411        0.430942387        -170.096411        0.430942387        -170.096411
                      0.430942387        -170.096411
                      0.430942387        -170.096411       0.0636764695        -63.4464252       0.0973499278         10.8010633       0.0530365322         -79.193031
                     0.0530365322         -79.193031
                      0.430942387        -170.096411       0.0973499278         10.8010633       0.0636764695        -63.4464252       0.0530365322         -79.193031
                     0.0530365322         -79.193031
                      0.430942387        -170.096411       0.0530365322         -79.193031       0.0530365322         -79.193031       0.0636764695        -63.4464252
                     0.0973499278         10.8010633
                      0.430942387        -170.096411       0.0530365322         -79.193031       0.0530365322         -79.193031       0.0973499278         10.8010633
                     0.0636764695        -63.4464252

2.1225e+10       0.198003744         -105.42008        0.432499995        -174.775837        0.432499995        -174.775837        0.432499995        -174.775837
                      0.432499995        -174.775837
                      0.432499995        -174.775837       0.0613662509        -65.9891439       0.0907145531         8.26225178       0.0506117598        -86.7092779
                     0.0506117598        -86.7092779
                      0.432499995        -174.775837       0.0907145531         8.26225178       0.0613662509        -65.9891439       0.0506117598        -86.7092779
                     0.0506117598        -86.7092779
                      0.432499995        -174.775837       0.0506117598        -86.7092779       0.0506117598        -86.7092779       0.0613662509        -65.9891439
                     0.0907145531         8.26225178
                      0.432499995        -174.775837       0.0506117598        -86.7092779       0.0506117598        -86.7092779       0.0907145531         8.26225178
                     0.0613662509        -65.9891439

2.125e+10       0.182693019        -108.557972        0.433938879        -179.466085        0.433938879        -179.466085        0.433938879        -179.466085
                      0.433938879        -179.466085
                      0.433938879        -179.466085       0.0588937459        -68.4390012       0.0841916721         5.83254534        0.048168185        -94.2529989
                      0.048168185        -94.2529989
                      0.433938879        -179.466085       0.0841916721         5.83254534       0.0588937459        -68.4390012        0.048168185        -94.2529989
                      0.048168185        -94.2529989
                      0.433938879        -179.466085        0.048168185        -94.2529989        0.048168185        -94.2529989       0.0588937459        -68.4390012
                     0.0841916721         5.83254534
                      0.433938879        -179.466085        0.048168185        -94.2529989        0.048168185        -94.2529989       0.0841916721         5.83254534
                     0.0588937459        -68.4390012

2.1275e+10       0.167517597        -111.622315        0.435254829         175.834756        0.435254829         175.834756        0.435254829         175.834756
                      0.435254829         175.834756
                      0.435254829         175.834756        0.056281549        -70.7684481       0.0778001949         3.52600356       0.0457066513        -101.826746
                     0.0457066513        -101.826746
                      0.435254829         175.834756       0.0778001949         3.52600356        0.056281549        -70.7684481       0.0457066513        -101.826746
                     0.0457066513        -101.826746
                      0.435254829         175.834756       0.0457066513        -101.826746       0.0457066513        -101.826746        0.056281549        -70.7684481
                     0.0778001949         3.52600356
                      0.435254829         175.834756       0.0457066513        -101.826746       0.0457066513        -101.826746       0.0778001949         3.52600356
                      0.056281549        -70.7684481

2.13e+10        0.15255235        -114.594451        0.436445556         171.128589        0.436445556         171.128589        0.436445556         171.128589
                      0.436445556         171.128589
                      0.436445556         171.128589       0.0535550509        -72.9471552       0.0715567968         1.35803636         0.04322825        -109.433857
                       0.04322825        -109.433857
                      0.436445556         171.128589       0.0715567968         1.35803636       0.0535550509        -72.9471552         0.04322825        -109.433857
                       0.04322825        -109.433857
                      0.436445556         171.128589         0.04322825        -109.433857         0.04322825        -109.433857       0.0535550509        -72.9471552
                     0.0715567968         1.35803636
                      0.436445556         171.128589         0.04322825        -109.433857         0.04322825        -109.433857       0.0715567968         1.35803636
                     0.0535550509        -72.9471552

2.1325e+10       0.137872376        -117.451131        0.437510684         166.417275        0.437510684         166.417275        0.437510684         166.417275
                      0.437510684         166.417275
                      0.437510684         166.417275       0.0507421187        -74.9415057       0.0654754424       -0.653971298       0.0407342956        -117.078736
                     0.0407342956        -117.078736
                      0.437510684         166.417275       0.0654754424       -0.653971298       0.0507421187        -74.9415057       0.0407342956        -117.078736
                     0.0407342956        -117.078736
                      0.437510684         166.417275       0.0407342956        -117.078736       0.0407342956        -117.078736       0.0507421187        -74.9415057
                     0.0654754424       -0.653971298
                      0.437510684         166.417275       0.0407342956        -117.078736       0.0407342956        -117.078736       0.0654754424       -0.653971298
                     0.0507421187        -74.9415057

2.135e+10       0.123552396        -120.162749        0.438451688         161.702599        0.438451688         161.702599        0.438451688         161.702599
                      0.438451688         161.702599
                      0.438451688         161.702599        0.047872783        -76.7140548       0.0595670102         -2.4896161       0.0382263021         -124.76724
                     0.0382263021         -124.76724
                      0.438451688         161.702599       0.0595670102         -2.4896161        0.047872783        -76.7140548       0.0382263021         -124.76724
                     0.0382263021         -124.76724
                      0.438451688         161.702599       0.0382263021         -124.76724       0.0382263021         -124.76724        0.047872783        -76.7140548
                     0.0595670102         -2.4896161
                      0.438451688         161.702599       0.0382263021         -124.76724       0.0382263021         -124.76724       0.0595670102         -2.4896161
                      0.047872783        -76.7140548

2.1375e+10       0.109666236        -122.690679        0.439271816         156.986241        0.439271816         156.986241        0.439271816         156.986241
                      0.439271816         156.986241
                      0.439271816         156.986241       0.0449789693        -78.2230573       0.0538390598        -4.12374168       0.0357059643        -132.507216
                     0.0357059643        -132.507216
                      0.439271816         156.986241       0.0538390598        -4.12374168       0.0449789693        -78.2230573       0.0357059643        -132.507216
                     0.0357059643        -132.507216
                      0.439271816         156.986241       0.0357059643        -132.507216       0.0357059643        -132.507216       0.0449789693        -78.2230573
                     0.0538390598        -4.12374168
                      0.439271816         156.986241       0.0357059643        -132.507216       0.0357059643        -132.507216       0.0538390598        -4.12374168
                     0.0449789693        -78.2230573

2.14e+10      0.0962865802        -124.983068        0.439975913         152.269745        0.439975913         152.269745        0.439975913         152.269745
                      0.439975913         152.269745
                      0.439975913         152.269745       0.0420941978         -79.421998        0.048295775        -5.52353776       0.0331751386        -140.309277
                     0.0331751386        -140.309277
                      0.439975913         152.269745        0.048295775        -5.52353776       0.0420941978         -79.421998       0.0331751386        -140.309277
                     0.0331751386        -140.309277
                      0.439975913         152.269745       0.0331751386        -140.309277       0.0331751386        -140.309277       0.0420941978         -79.421998
                      0.048295775        -5.52353776
                      0.439975913         152.269745       0.0331751386        -140.309277       0.0331751386        -140.309277        0.048295775        -5.52353776
                     0.0420941978         -79.421998

2.1425e+10      0.0834849978        -126.968076        0.440570257         147.554498        0.440570257         147.554498        0.440570257         147.554498
                      0.440570257         147.554498
                      0.440570257         147.554498       0.0392533658        -80.2595229       0.0429381869        -6.64360882       0.0306358459        -148.187933
                     0.0306358459        -148.187933
                      0.440570257         147.554498       0.0429381869        -6.64360882       0.0392533658        -80.2595229       0.0306358459        -148.187933
                     0.0306358459        -148.187933
