! Created Mon Jun 10 12:53:44 2024
# hz S ma R 50
! 5 Port Network Data from SP1.SP block
! freq  magS11  angS11  magS12  angS12  magS13  angS13  magS14  angS14  
!       magS15  angS15  
!       magS21  angS21  magS22  angS22  magS23  angS23  
!       magS24  angS24  magS25  angS25  
!       magS31  angS31  magS32  angS32  
!       magS33  angS33  magS34  angS34  magS35  angS35  
!       magS41  angS41  
!       magS42  angS42  magS43  angS43  magS44  angS44  magS45  angS45  
!       magS51  angS51  magS52  angS52  magS53  angS53  magS54  angS54  
!       magS55  angS55  
!     
2.1e+10       0.189663419        -100.976268        0.434040697        -162.802039        0.434040697        -162.802039        0.434040697        -162.802039
                      0.434040697        -162.802039
                      0.434040697        -162.802039       0.0470105129        -57.7453826       0.0857032315         13.2182911       0.0426143932        -61.8002456
                     0.0426143932        -61.8002456
                      0.434040697        -162.802039       0.0857032315         13.2182911       0.0470105129        -57.7453826       0.0426143932        -61.8002456
                     0.0426143932        -61.8002456
                      0.434040697        -162.802039       0.0426143932        -61.8002456       0.0426143932        -61.8002456       0.0470105129        -57.7453826
                     0.0857032315         13.2182911
                      0.434040697        -162.802039       0.0426143932        -61.8002456       0.0426143932        -61.8002456       0.0857032315         13.2182911
                     0.0470105129        -57.7453826

2.1025e+10       0.177408742        -103.877587        0.435136277        -167.488695        0.435136277        -167.488695        0.435136277        -167.488695
                      0.435136277        -167.488695
                      0.435136277        -167.488695       0.0460371371         -61.141142       0.0791871894         9.50354474       0.0402270552         -69.371158
                     0.0402270552         -69.371158
                      0.435136277        -167.488695       0.0791871894         9.50354474       0.0460371371         -61.141142       0.0402270552         -69.371158
                     0.0402270552         -69.371158
                      0.435136277        -167.488695       0.0402270552         -69.371158       0.0402270552         -69.371158       0.0460371371         -61.141142
                     0.0791871894         9.50354474
                      0.435136277        -167.488695       0.0402270552         -69.371158       0.0402270552         -69.371158       0.0791871894         9.50354474
                     0.0460371371         -61.141142

2.105e+10       0.165361725        -106.705645        0.436141978        -172.181657        0.436141978        -172.181657        0.436141978        -172.181657
                      0.436141978        -172.181657
                      0.436141978        -172.181657         0.04492345        -64.5179306       0.0727253678         5.69020655       0.0378280259        -76.9807524
                     0.0378280259        -76.9807524
                      0.436141978        -172.181657       0.0727253678         5.69020655         0.04492345        -64.5179306       0.0378280259        -76.9807524
                     0.0378280259        -76.9807524
                      0.436141978        -172.181657       0.0378280259        -76.9807524       0.0378280259        -76.9807524         0.04492345        -64.5179306
                     0.0727253678         5.69020655
                      0.436141978        -172.181657       0.0378280259        -76.9807524       0.0378280259        -76.9807524       0.0727253678         5.69020655
                       0.04492345        -64.5179306

2.1075e+10       0.153575494        -109.451956        0.437057463        -176.879655        0.437057463        -176.879655        0.437057463        -176.879655
                      0.437057463        -176.879655
                      0.437057463        -176.879655       0.0436783758        -67.8648849       0.0663321508         1.74603301       0.0354181491        -84.6357248
                     0.0354181491        -84.6357248
                      0.437057463        -176.879655       0.0663321508         1.74603301       0.0436783758        -67.8648849       0.0354181491        -84.6357248
                     0.0354181491        -84.6357248
                      0.437057463        -176.879655       0.0354181491        -84.6357248       0.0354181491        -84.6357248       0.0436783758        -67.8648849
                     0.0663321508         1.74603301
                      0.437057463        -176.879655       0.0354181491        -84.6357248       0.0354181491        -84.6357248       0.0663321508         1.74603301
                     0.0436783758        -67.8648849

2.11e+10       0.142101496        -112.107811        0.437883542         178.418524        0.437883542         178.418524        0.437883542         178.418524
                      0.437883542         178.418524
                      0.437883542         178.418524       0.0423117692        -71.1717558       0.0600219844        -2.37503533       0.0329984268        -92.3449227
                     0.0329984268        -92.3449227
                      0.437883542         178.418524       0.0600219844        -2.37503533       0.0423117692        -71.1717558       0.0329984268        -92.3449227
                     0.0329984268        -92.3449227
                      0.437883542         178.418524       0.0329984268        -92.3449227       0.0329984268        -92.3449227       0.0423117692        -71.1717558
                     0.0600219844        -2.37503533
                      0.437883542         178.418524       0.0329984268        -92.3449227       0.0329984268        -92.3449227       0.0600219844        -2.37503533
                     0.0423117692        -71.1717558

2.1125e+10       0.130988887        -114.664562        0.438622105         173.714013        0.438622105         173.714013        0.438622105         173.714013
                      0.438622105         173.714013
                      0.438622105         173.714013       0.0408341534        -74.4289351       0.0538100701        -6.73978085       0.0305700273         -100.12022
                     0.0305700273         -100.12022
                      0.438622105         173.714013       0.0538100701        -6.73978085       0.0408341534        -74.4289351       0.0305700273         -100.12022
                     0.0305700273         -100.12022
                      0.438622105         173.714013       0.0305700273         -100.12022       0.0305700273         -100.12022       0.0408341534        -74.4289351
                     0.0538100701        -6.73978085
                      0.438622105         173.714013       0.0305700273         -100.12022       0.0305700273         -100.12022       0.0538100701        -6.73978085
                     0.0408341534        -74.4289351

2.115e+10       0.120283905         -117.11404        0.439276018         169.007856        0.439276018         169.007856        0.439276018         169.007856
                      0.439276018         169.007856
                      0.439276018         169.007856       0.0392564229        -77.6274211        0.047713739        -11.4471911       0.0281343029        -107.977843
                     0.0281343029        -107.977843
                      0.439276018         169.007856        0.047713739        -11.4471911       0.0392564229        -77.6274211       0.0281343029        -107.977843
                     0.0281343029        -107.977843
                      0.439276018         169.007856       0.0281343029        -107.977843       0.0281343029        -107.977843       0.0392564229        -77.6274211
                      0.047713739        -11.4471911
                      0.439276018         169.007856       0.0281343029        -107.977843       0.0281343029        -107.977843        0.047713739        -11.4471911
                     0.0392564229        -77.6274211

2.1175e+10       0.110029216        -119.449217        0.439848993         164.300989        0.439848993         164.300989        0.439848993         164.300989
                      0.439848993         164.300989
                      0.439848993         164.300989       0.0375895553        -80.7588009       0.0417550779        -16.6483098       0.0256928311        -115.940435
                     0.0256928311        -115.940435
                      0.439848993         164.300989       0.0417550779        -16.6483098       0.0375895553        -80.7588009       0.0256928311        -115.940435
                     0.0256928311        -115.940435
                      0.439848993         164.300989       0.0256928311        -115.940435       0.0256928311        -115.940435       0.0375895553        -80.7588009
                     0.0417550779        -16.6483098
                      0.439848993         164.300989       0.0256928311        -115.940435       0.0256928311        -115.940435       0.0417550779        -16.6483098
                     0.0375895553        -80.7588009

2.12e+10       0.100263194        -121.665201        0.440345459         159.594236        0.440345459         159.594236        0.440345459         159.594236
                      0.440345459         159.594236
                      0.440345459         159.594236       0.0358443241        -83.8152108       0.0359659862         -22.581926       0.0232474951        -124.040413
                     0.0232474951        -124.040413
                      0.440345459         159.594236       0.0359659862         -22.581926       0.0358443241        -83.8152108       0.0232474951        -124.040413
                     0.0232474951        -124.040413
                      0.440345459         159.594236       0.0232474951        -124.040413       0.0232474951        -124.040413       0.0358443241        -83.8152108
                     0.0359659862         -22.581926
                      0.440345459         159.594236       0.0232474951        -124.040413       0.0232474951        -124.040413       0.0359659862         -22.581926
                     0.0358443241        -83.8152108

2.1225e+10      0.0910191454        -123.760714        0.440770424         154.888296        0.440770424         154.888296        0.440770424         154.888296
                      0.440770424         154.888296
                      0.440770424         154.888296        0.034031038        -86.7892989       0.0303982853        -29.6408418       0.0208006356        -132.325648
                     0.0208006356        -132.325648
                      0.440770424         154.888296       0.0303982853        -29.6408418        0.034031038        -86.7892989       0.0208006356        -132.325648
                     0.0208006356        -132.325648
                      0.440770424         154.888296       0.0208006356        -132.325648       0.0208006356        -132.325648        0.034031038        -86.7892989
                     0.0303982853        -29.6408418
                      0.440770424         154.888296       0.0208006356        -132.325648       0.0208006356        -132.325648       0.0303982853        -29.6408418
                      0.034031038        -86.7892989

2.125e+10      0.0823244751        -125.740196         0.44112931          150.18374         0.44112931          150.18374         0.44112931          150.18374
                       0.44112931          150.18374
                       0.44112931          150.18374       0.0321592665        -89.6740883       0.0251449104        -38.4954506       0.0183553366        -140.869586
                     0.0183553366        -140.869586
                       0.44112931          150.18374       0.0251449104        -38.4954506       0.0321592665        -89.6740883       0.0183553366        -140.869586
                     0.0183553366        -140.869586
                       0.44112931          150.18374       0.0183553366        -140.869586       0.0183553366        -140.869586       0.0321592665        -89.6740883
                     0.0251449104        -38.4954506
                       0.44112931          150.18374       0.0183553366        -140.869586       0.0183553366        -140.869586       0.0251449104        -38.4954506
                     0.0321592665        -89.6740883

2.1275e+10       0.074199783        -127.616783        0.441427812          145.48101        0.441427812          145.48101        0.441427812          145.48101
                      0.441427812          145.48101
                      0.441427812          145.48101       0.0302376158        -92.4628106       0.0203857696        -50.3018487       0.0159159864        -149.790403
                     0.0159159864        -149.790403
                      0.441427812          145.48101       0.0203857696        -50.3018487       0.0302376158        -92.4628106       0.0159159864        -149.790403
                     0.0159159864        -149.790403
                      0.441427812          145.48101       0.0159159864        -149.790403       0.0159159864        -149.790403       0.0302376158        -92.4628106
                     0.0203857696        -50.3018487
                      0.441427812          145.48101       0.0159159864        -149.790403       0.0159159864        -149.790403       0.0203857696        -50.3018487
                     0.0302376158        -92.4628106

2.13e+10      0.0666579759        -129.416362        0.441671737         140.780416        0.441671737         140.780416        0.441671737         140.780416
                      0.441671737         140.780416
                      0.441671737         140.780416       0.0282735078         -95.148573       0.0164807717        -66.8661764       0.0134894484        -159.289989
                     0.0134894484        -159.289989
                      0.441671737         140.780416       0.0164807717        -66.8661764       0.0282735078         -95.148573       0.0134894484        -159.289989
                     0.0134894484        -159.289989
                      0.441671737         140.780416       0.0134894484        -159.289989       0.0134894484        -159.289989       0.0282735078         -95.148573
                     0.0164807717        -66.8661764
                      0.441671737         140.780416       0.0134894484        -159.289989       0.0134894484        -159.289989       0.0164807717        -66.8661764
                     0.0282735078         -95.148573

2.1325e+10      0.0597034988        -131.182982        0.441866852         136.082142        0.441866852         136.082142        0.441866852         136.082142
                      0.441866852         136.082142
                      0.441866852         136.082142       0.0262729983        -97.7238235       0.0140820584         -89.724378       0.0110877372        -169.740701
                     0.0110877372        -169.740701
                      0.441866852         136.082142       0.0140820584         -89.724378       0.0262729983        -97.7238235       0.0110877372        -169.740701
                     0.0110877372        -169.740701
                      0.441866852         136.082142       0.0110877372        -169.740701       0.0110877372        -169.740701       0.0262729983        -97.7238235
                     0.0140820584         -89.724378
                      0.441866852         136.082142       0.0110877372        -169.740701       0.0110877372        -169.740701       0.0140820584         -89.724378
                     0.0262729983        -97.7238235

2.135e+10      0.0533319165         -132.98584        0.442018746          131.38625        0.442018746          131.38625        0.442018746          131.38625
                      0.442018746          131.38625
                      0.442018746          131.38625       0.0242406409        -100.179488       0.0139264518        -116.326922      0.00873491646         178.099581
                    0.00873491646         178.099581
                      0.442018746          131.38625       0.0139264518        -116.326922       0.0242406409        -100.179488      0.00873491646         178.099581
                    0.00873491646         178.099581
                      0.442018746          131.38625      0.00873491646         178.099581      0.00873491646         178.099581       0.0242406409        -100.179488
                     0.0139264518        -116.326922
                      0.442018746          131.38625      0.00873491646         178.099581      0.00873491646         178.099581       0.0139264518        -116.326922
                     0.0242406409        -100.179488

2.1375e+10      0.0475302817        -134.928055        0.442132693         126.692687        0.442132693         126.692687        0.442132693         126.692687
                      0.442132693         126.692687
                      0.442132693         126.692687       0.0221793825        -102.503492       0.0160392332        -139.711679       0.0064878997         162.487287
                     0.0064878997         162.487287
                      0.442132693         126.692687       0.0160392332        -139.711679       0.0221793825        -102.503492       0.0064878997         162.487287
                     0.0064878997         162.487287
                      0.442132693         126.692687       0.0064878997         162.487287       0.0064878997         162.487287       0.0221793825        -102.503492
                     0.0160392332        -139.711679
                      0.442132693         126.692687       0.0064878997         162.487287       0.0064878997         162.487287       0.0160392332        -139.711679
                     0.0221793825        -102.503492

2.14e+10      0.0422788861        -137.157372        0.442213539         122.001298        0.442213539         122.001298        0.442213539         122.001298
                      0.442213539         122.001298
                      0.442213539         122.001298       0.0200905431        -104.678305       0.0196822853        -156.766622        0.004510989         138.948009
                      0.004510989         138.948009
                      0.442213539         122.001298       0.0196822853        -156.766622       0.0200905431        -104.678305        0.004510989         138.948009
                      0.004510989         138.948009
                      0.442213539         122.001298        0.004510989         138.948009        0.004510989         138.948009       0.0200905431        -104.678305
                     0.0196822853        -156.766622
                      0.442213539         122.001298        0.004510989         138.948009        0.004510989         138.948009       0.0196822853        -156.766622
                     0.0200905431        -104.678305

2.1425e+10      0.0375554116        -139.878797        0.442265583         117.311832        0.442265583         117.311832        0.442265583         117.311832
                      0.442265583         117.311832
                      0.442265583         117.311832       0.0179738215         -106.67645       0.0241650847        -168.852827      0.00332876592          98.645078
                    0.00332876592          98.645078
                      0.442265583         117.311832       0.0241650847        -168.852827       0.0179738215         -106.67645      0.00332876592          98.645078
                    0.00332876592          98.645078
