! Created Mon Jun 10 12:49:48 2024
# hz S ma R 50
! 5 Port Network Data from SP1.SP block
! freq  magS11  angS11  magS12  angS12  magS13  angS13  magS14  angS14  
!       magS15  angS15  
!       magS21  angS21  magS22  angS22  magS23  angS23  
!       magS24  angS24  magS25  angS25  
!       magS31  angS31  magS32  angS32  
!       magS33  angS33  magS34  angS34  magS35  angS35  
!       magS41  angS41  
!       magS42  angS42  magS43  angS43  magS44  angS44  magS45  angS45  
!       magS51  angS51  magS52  angS52  magS53  angS53  magS54  angS54  
!       magS55  angS55  
!     
2.1e+10       0.337808706        -73.3317375        0.414199013        -129.527683        0.414199013        -129.527683        0.414199013        -129.527683
                      0.414199013        -129.527683
                      0.414199013        -129.527683       0.0741745007        -40.3545083        0.156157097         36.9573266       0.0732342642         -13.805389
                     0.0732342642         -13.805389
                      0.414199013        -129.527683        0.156157097         36.9573266       0.0741745007        -40.3545083       0.0732342642         -13.805389
                     0.0732342642         -13.805389
                      0.414199013        -129.527683       0.0732342642         -13.805389       0.0732342642         -13.805389       0.0741745007        -40.3545083
                      0.156157097         36.9573266
                      0.414199013        -129.527683       0.0732342642         -13.805389       0.0732342642         -13.805389        0.156157097         36.9573266
                     0.0741745007        -40.3545083

2.1025e+10       0.324757915        -76.6302786        0.416330126        -134.033297        0.416330126        -134.033297        0.416330126        -134.033297
                      0.416330126        -134.033297
                      0.416330126        -134.033297       0.0737932508        -42.7705424        0.149442851         33.9446389       0.0709619745        -21.1227846
                     0.0709619745        -21.1227846
                      0.416330126        -134.033297        0.149442851         33.9446389       0.0737932508        -42.7705424       0.0709619745        -21.1227846
                     0.0709619745        -21.1227846
                      0.416330126        -134.033297       0.0709619745        -21.1227846       0.0709619745        -21.1227846       0.0737932508        -42.7705424
                      0.149442851         33.9446389
                      0.416330126        -134.033297       0.0709619745        -21.1227846       0.0709619745        -21.1227846        0.149442851         33.9446389
                     0.0737932508        -42.7705424

2.105e+10       0.311258961        -79.9331912        0.418443036         -138.56158        0.418443036         -138.56158        0.418443036         -138.56158
                      0.418443036         -138.56158
                      0.418443036         -138.56158        0.073207016        -45.2709689        0.142664971         30.9482574       0.0686759284          -28.45736
                     0.0686759284          -28.45736
                      0.418443036         -138.56158        0.142664971         30.9482574        0.073207016        -45.2709689       0.0686759284          -28.45736
                     0.0686759284          -28.45736
                      0.418443036         -138.56158       0.0686759284          -28.45736       0.0686759284          -28.45736        0.073207016        -45.2709689
                      0.142664971         30.9482574
                      0.418443036         -138.56158       0.0686759284          -28.45736       0.0686759284          -28.45736        0.142664971         30.9482574
                      0.073207016        -45.2709689

2.1075e+10       0.297353941        -83.2366649        0.420522999        -143.111796        0.420522999        -143.111796        0.420522999        -143.111796
                      0.420522999        -143.111796
                      0.420522999        -143.111796       0.0724043591        -47.8399952        0.135838153         27.9763932       0.0663747053        -35.8101868
                     0.0663747053        -35.8101868
                      0.420522999        -143.111796        0.135838153         27.9763932       0.0724043591        -47.8399952       0.0663747053        -35.8101868
                     0.0663747053        -35.8101868
                      0.420522999        -143.111796       0.0663747053        -35.8101868       0.0663747053        -35.8101868       0.0724043591        -47.8399952
                      0.135838153         27.9763932
                      0.420522999        -143.111796       0.0663747053        -35.8101868       0.0663747053        -35.8101868        0.135838153         27.9763932
                     0.0724043591        -47.8399952

2.11e+10       0.283089633        -86.5362288        0.422555706        -147.683008        0.422555706        -147.683008        0.422555706        -147.683008
                      0.422555706        -147.683008
                      0.422555706        -147.683008       0.0713780318        -50.4609506        0.128979518         25.0378789       0.0640570631        -43.1823017
                     0.0640570631        -43.1823017
                      0.422555706        -147.683008        0.128979518         25.0378789       0.0713780318        -50.4609506       0.0640570631        -43.1823017
                     0.0640570631        -43.1823017
                      0.422555706        -147.683008       0.0640570631        -43.1823017       0.0640570631        -43.1823017       0.0713780318        -50.4609506
                      0.128979518         25.0378789
                      0.422555706        -147.683008       0.0640570631        -43.1823017       0.0640570631        -43.1823017        0.128979518         25.0378789
                     0.0713780318        -50.4609506

2.1125e+10       0.268517405         -89.826657        0.424527482        -152.274087        0.424527482        -152.274087        0.424527482        -152.274087
                      0.424527482        -152.274087
                      0.424527482        -152.274087       0.0701250014        -53.1162856        0.122108195         22.1421576       0.0617219673        -50.5747332
                     0.0617219673        -50.5747332
                      0.424527482        -152.274087        0.122108195         22.1421576       0.0701250014        -53.1162856       0.0617219673        -50.5747332
                     0.0617219673        -50.5747332
                      0.424527482        -152.274087       0.0617219673        -50.5747332       0.0617219673        -50.5747332       0.0701250014        -53.1162856
                      0.122108195         22.1421576
                      0.424527482        -152.274087       0.0617219673        -50.5747332       0.0617219673        -50.5747332        0.122108195         22.1421576
                     0.0701250014        -53.1162856

2.115e+10       0.253693044        -93.1018724        0.426425547        -156.883725        0.426425547        -156.883725        0.426425547        -156.883725
                      0.426425547        -156.883725
                      0.426425547        -156.883725       0.0686464561        -55.7876127        0.115244877         19.2992796       0.0593686306        -57.9885376
                     0.0593686306        -57.9885376
                      0.426425547        -156.883725        0.115244877         19.2992796       0.0686464561        -55.7876127       0.0593686306        -57.9885376
                     0.0593686306        -57.9885376
                      0.426425547        -156.883725       0.0593686306        -57.9885376       0.0593686306        -57.9885376       0.0686464561        -55.7876127
                      0.115244877         19.2992796
                      0.426425547        -156.883725       0.0593686306        -57.9885376       0.0593686306        -57.9885376        0.115244877         19.2992796
                     0.0686464561        -55.7876127

2.1175e+10       0.238676463        -96.3547988         0.42823821        -161.510454         0.42823821        -161.510454         0.42823821        -161.510454
                       0.42823821        -161.510454
                       0.42823821        -161.510454       0.0669476973        -58.4555641          0.1084113         16.5199073       0.0569965281        -65.4248498
                     0.0569965281        -65.4248498
                       0.42823821        -161.510454          0.1084113         16.5199073       0.0669476973        -58.4555641       0.0569965281        -65.4248498
                     0.0569965281        -65.4248498
                       0.42823821        -161.510454       0.0569965281        -65.4248498       0.0569965281        -65.4248498       0.0669476973        -58.4555641
                        0.1084113         16.5199073
                       0.42823821        -161.510454       0.0569965281        -65.4248498       0.0569965281        -65.4248498          0.1084113         16.5199073
                     0.0669476973        -58.4555641

2.12e+10       0.223531312        -99.5771845        0.429955086        -166.152671        0.429955086        -166.152671        0.429955086        -166.152671
                      0.429955086        -166.152671
                      0.429955086        -166.152671        0.065038012          -61.09967         0.10162971         13.8153372        0.054605416        -72.8849492
                      0.054605416        -72.8849492
                      0.429955086        -166.152671         0.10162971         13.8153372        0.065038012          -61.09967        0.054605416        -72.8849492
                      0.054605416        -72.8849492
                      0.429955086        -166.152671        0.054605416        -72.8849492        0.054605416        -72.8849492        0.065038012          -61.09967
                       0.10162971         13.8153372
                      0.429955086        -166.152671        0.054605416        -72.8849492        0.054605416        -72.8849492         0.10162971         13.8153372
                      0.065038012          -61.09967

2.1225e+10       0.208324504        -102.759356         0.43156728         -170.80866         0.43156728         -170.80866         0.43156728         -170.80866
                       0.43156728         -170.80866
                       0.43156728         -170.80866       0.0629304736        -63.6981318       0.0949222889         11.1975492       0.0521953367        -80.3703454
                     0.0521953367        -80.3703454
                       0.43156728         -170.80866       0.0949222889         11.1975492       0.0629304736        -63.6981318       0.0521953367        -80.3703454
                     0.0521953367        -80.3703454
                       0.43156728         -170.80866       0.0521953367        -80.3703454       0.0521953367        -80.3703454       0.0629304736        -63.6981318
                     0.0949222889         11.1975492
                       0.43156728         -170.80866       0.0521953367        -80.3703454       0.0521953367        -80.3703454       0.0949222889         11.1975492
                     0.0629304736        -63.6981318

2.125e+10       0.193125643        -105.889894        0.433067541        -175.476625        0.433067541        -175.476625        0.433067541        -175.476625
                      0.433067541        -175.476625
                      0.433067541        -175.476625       0.0606417176         -66.227571       0.0883105769         8.67930181       0.0497666201        -87.8828878
                     0.0497666201        -87.8828878
                      0.433067541        -175.476625       0.0883105769         8.67930181       0.0606417176         -66.227571       0.0497666201        -87.8828878
                     0.0497666201        -87.8828878
                      0.433067541        -175.476625       0.0497666201        -87.8828878       0.0497666201        -87.8828878       0.0606417176         -66.227571
                     0.0883105769         8.67930181
                      0.433067541        -175.476625       0.0497666201        -87.8828878       0.0497666201        -87.8828878       0.0883105769         8.67930181
                     0.0606417176         -66.227571

2.1275e+10       0.178006407        -108.955173        0.434450381         179.845282        0.434450381         179.845282        0.434450381         179.845282
                      0.434450381         179.845282
                      0.434450381         179.845282       0.0581916643        -68.6626845       0.0818148938         6.27430052       0.0473198732        -95.4249078
                     0.0473198732        -95.4249078
                      0.434450381         179.845282       0.0818148938         6.27430052       0.0581916643        -68.6626845       0.0473198732        -95.4249078
                     0.0473198732        -95.4249078
                      0.434450381         179.845282       0.0473198732        -95.4249078       0.0473198732        -95.4249078       0.0581916643        -68.6626845
                     0.0818148938         6.27430052
                      0.434450381         179.845282       0.0473198732        -95.4249078       0.0473198732        -95.4249078       0.0818148938         6.27430052
                     0.0581916643        -68.6626845

2.13e+10       0.163039884        -111.938729        0.435712152         175.158924        0.435712152         175.158924        0.435712152         175.158924
                      0.435712152         175.158924
                      0.435712152         175.158924       0.0556032271        -70.9758569       0.0754537886         3.99748805       0.0448559665        -102.999403
                     0.0448559665        -102.999403
                      0.435712152         175.158924       0.0754537886         3.99748805       0.0556032271        -70.9758569       0.0448559665        -102.999403
                     0.0448559665        -102.999403
                      0.435712152         175.158924       0.0448559665        -102.999403       0.0448559665        -102.999403       0.0556032271        -70.9758569
                     0.0754537886         3.99748805
                      0.435712152         175.158924       0.0448559665        -102.999403       0.0448559665        -102.999403       0.0754537886         3.99748805
                     0.0556032271        -70.9758569

2.1325e+10       0.148299911        -114.820346        0.436851072          170.46615        0.436851072          170.46615        0.436851072          170.46615
                      0.436851072          170.46615
                      0.436851072          170.46615       0.0529020035        -73.1367051       0.0692435338         1.86552872       0.0423760149        -110.610279
                     0.0423760149        -110.610279
                      0.436851072          170.46615       0.0692435338         1.86552872       0.0529020035        -73.1367051       0.0423760149        -110.610279
                     0.0423760149        -110.610279
                      0.436851072          170.46615       0.0423760149        -110.610279       0.0423760149        -110.610279       0.0529020035        -73.1367051
                     0.0692435338         1.86552872
                      0.436851072          170.46615       0.0423760149        -110.610279       0.0423760149        -110.610279       0.0692435338         1.86552872
                     0.0529020035        -73.1367051

2.135e+10       0.133860424        -117.574742        0.437867223         165.768762        0.437867223         165.768762        0.437867223         165.768762
                      0.437867223         165.768762
                      0.437867223         165.768762       0.0501159683        -75.1115784       0.0631976969       -0.102391227       0.0398813566        -118.262676
                     0.0398813566        -118.262676
                      0.437867223         165.768762       0.0631976969       -0.102391227       0.0501159683        -75.1115784       0.0398813566        -118.262676
                     0.0398813566        -118.262676
                      0.437867223         165.768762       0.0398813566        -118.262676       0.0398813566        -118.262676       0.0501159683        -75.1115784
                     0.0631976969       -0.102391227
                      0.437867223         165.768762       0.0398813566        -118.262676       0.0398813566        -118.262676       0.0631976969       -0.102391227
                     0.0501159683        -75.1115784

2.1375e+10       0.119794912        -120.169601        0.438762467         161.068478        0.438762467         161.068478        0.438762467         161.068478
                      0.438762467         161.068478
                      0.438762467         161.068478       0.0472751633        -76.8630005        0.057326813        -1.88324707       0.0373735308        -125.963415
                     0.0373735308        -125.963415
                      0.438762467         161.068478        0.057326813        -1.88324707       0.0472751633        -76.8630005       0.0373735308        -125.963415
                     0.0373735308        -125.963415
                      0.438762467         161.068478       0.0373735308        -125.963415       0.0373735308        -125.963415       0.0472751633        -76.8630005
                      0.057326813        -1.88324707
                      0.438762467         161.068478       0.0373735308        -125.963415       0.0373735308        -125.963415        0.057326813        -1.88324707
                     0.0472751633        -76.8630005

2.14e+10       0.106175997         -122.56259        0.439540342         156.366908        0.439540342         156.366908        0.439540342         156.366908
                      0.439540342         156.366908
                      0.439540342         156.366908       0.0444114164        -78.3491453       0.0516382114        -3.44799915        0.034854261        -133.721628
                      0.034854261        -133.721628
                      0.439540342         156.366908       0.0516382114        -3.44799915       0.0444114164        -78.3491453        0.034854261        -133.721628
                      0.034854261        -133.721628
                      0.439540342         156.366908        0.034854261        -133.721628        0.034854261        -133.721628       0.0444114164        -78.3491453
                     0.0516382114        -3.44799915
                      0.439540342         156.366908        0.034854261        -133.721628        0.034854261        -133.721628       0.0516382114        -3.44799915
                     0.0444114164        -78.3491453

2.1425e+10      0.0930752214        -124.696698        0.440205935         151.665525        0.440205935         151.665525        0.440205935         151.665525
                      0.440205935         151.665525
                      0.440205935         151.665525       0.0415581173        -79.5234889       0.0461360547         -4.7579471       0.0323254511        -141.549668
                     0.0323254511        -141.549668
                      0.440205935         151.665525       0.0461360547         -4.7579471       0.0415581173        -79.5234889       0.0323254511        -141.549668
                     0.0323254511        -141.549668
