! Created Mon Jun 10 12:45:58 2024
# hz S ma R 50
! 5 Port Network Data from SP1.SP block
! freq  magS11  angS11  magS12  angS12  magS13  angS13  magS14  angS14  
!       magS15  angS15  
!       magS21  angS21  magS22  angS22  magS23  angS23  
!       magS24  angS24  magS25  angS25  
!       magS31  angS31  magS32  angS32  
!       magS33  angS33  magS34  angS34  magS35  angS35  
!       magS41  angS41  
!       magS42  angS42  magS43  angS43  magS44  angS44  magS45  angS45  
!       magS51  angS51  magS52  angS52  magS53  angS53  magS54  angS54  
!       magS55  angS55  
!     
2.1e+10       0.470767703        -10.4513335        0.388162448        -42.6196813        0.388162448        -42.6196813        0.388162448        -42.6196813
                      0.388162448        -42.6196813
                      0.388162448        -42.6196813       0.0652912461        -15.9737713          0.2826483         94.5677295        0.117715221         132.989381
                      0.117715221         132.989381
                      0.388162448        -42.6196813          0.2826483         94.5677295       0.0652912461        -15.9737713        0.117715221         132.989381
                      0.117715221         132.989381
                      0.388162448        -42.6196813        0.117715221         132.989381        0.117715221         132.989381       0.0652912461        -15.9737713
                        0.2826483         94.5677295
                      0.388162448        -42.6196813        0.117715221         132.989381        0.117715221         132.989381          0.2826483         94.5677295
                     0.0652912461        -15.9737713

2.1025e+10       0.470243984        -13.4694963        0.388191377        -46.7005481        0.388191377        -46.7005481        0.388191377        -46.7005481
                      0.388191377        -46.7005481
                      0.388191377        -46.7005481       0.0646490176         -16.896097        0.276023337         91.9296684        0.115584785           125.9449
                      0.115584785           125.9449
                      0.388191377        -46.7005481        0.276023337         91.9296684       0.0646490176         -16.896097        0.115584785           125.9449
                      0.115584785           125.9449
                      0.388191377        -46.7005481        0.115584785           125.9449        0.115584785           125.9449       0.0646490176         -16.896097
                      0.276023337         91.9296684
                      0.388191377        -46.7005481        0.115584785           125.9449        0.115584785           125.9449        0.276023337         91.9296684
                     0.0646490176         -16.896097

2.105e+10       0.469066397        -16.4938413        0.388384418        -50.7839272        0.388384418        -50.7839272        0.388384418        -50.7839272
                      0.388384418        -50.7839272
                      0.388384418        -50.7839272        0.064018961        -17.7510258        0.269572447         89.2988182        0.113448675         118.904041
                      0.113448675         118.904041
                      0.388384418        -50.7839272        0.269572447         89.2988182        0.064018961        -17.7510258        0.113448675         118.904041
                      0.113448675         118.904041
                      0.388384418        -50.7839272        0.113448675         118.904041        0.113448675         118.904041        0.064018961        -17.7510258
                      0.269572447         89.2988182
                      0.388384418        -50.7839272        0.113448675         118.904041        0.113448675         118.904041        0.269572447         89.2988182
                      0.064018961        -17.7510258

2.1075e+10       0.467240781        -19.5256082        0.388738963        -54.8716461        0.388738963        -54.8716461        0.388738963        -54.8716461
                      0.388738963        -54.8716461
                      0.388738963        -54.8716461       0.0634276075        -18.5369622        0.263285535           86.66999        0.111308071         111.866779
                      0.111308071         111.866779
                      0.388738963        -54.8716461        0.263285535           86.66999       0.0634276075        -18.5369622        0.111308071         111.866779
                      0.111308071         111.866779
                      0.388738963        -54.8716461        0.111308071         111.866779        0.111308071         111.866779       0.0634276075        -18.5369622
                      0.263285535           86.66999
                      0.388738963        -54.8716461        0.111308071         111.866779        0.111308071         111.866779        0.263285535           86.66999
                     0.0634276075        -18.5369622

2.11e+10       0.464772307        -22.5659992        0.389251743        -58.9654871        0.389251743        -58.9654871        0.389251743        -58.9654871
                      0.389251743        -58.9654871
                      0.389251743        -58.9654871       0.0629006771        -19.2589708        0.257148875         84.0380138        0.109164125         104.832966
                      0.109164125         104.832966
                      0.389251743        -58.9654871        0.257148875         84.0380138       0.0629006771        -19.2589708        0.109164125         104.832966
                      0.109164125         104.832966
                      0.389251743        -58.9654871        0.109164125         104.832966        0.109164125         104.832966       0.0629006771        -19.2589708
                      0.257148875         84.0380138
                      0.389251743        -58.9654871        0.109164125         104.832966        0.109164125         104.832966        0.257148875         84.0380138
                     0.0629006771        -19.2589708

2.1125e+10       0.461665612        -25.6161648        0.389918819        -63.0671807        0.389918819        -63.0671807        0.389918819        -63.0671807
                      0.389918819        -63.0671807
                      0.389918819        -63.0671807       0.0624614341        -19.9287858        0.251145597         81.3978973        0.107017911         97.8023292
                      0.107017911         97.8023292
                      0.389918819        -63.0671807        0.251145597         81.3978973       0.0624614341        -19.9287858        0.107017911         97.8023292
                      0.107017911         97.8023292
                      0.389918819        -63.0671807        0.107017911         97.8023292        0.107017911         97.8023292       0.0624614341        -19.9287858
                      0.251145597         81.3978973
                      0.389918819        -63.0671807        0.107017911         97.8023292        0.107017911         97.8023292        0.251145597         81.3978973
                     0.0624614341        -19.9287858

2.115e+10       0.457924979        -28.6771894        0.390735583        -67.1783984        0.390735583        -67.1783984        0.390735583        -67.1783984
                      0.390735583        -67.1783984
                      0.390735583        -67.1783984       0.0621291477        -20.5643764         0.24525631         78.7449766        0.104870392          90.774465
                      0.104870392          90.774465
                      0.390735583        -67.1783984         0.24525631         78.7449766       0.0621291477        -20.5643764        0.104870392          90.774465
                      0.104870392          90.774465
                      0.390735583        -67.1783984        0.104870392          90.774465        0.104870392          90.774465       0.0621291477        -20.5643764
                       0.24525631         78.7449766
                      0.390735583        -67.1783984        0.104870392          90.774465        0.104870392          90.774465         0.24525631         78.7449766
                     0.0621291477        -20.5643764

2.1175e+10       0.453554489        -31.7500769        0.391696736        -71.3007447        0.391696736        -71.3007447        0.391696736        -71.3007447
                      0.391696736        -71.3007447
                      0.391696736        -71.3007447       0.0619177488         -21.188883        0.239459731         76.0750503        0.102722366          83.748842
                      0.102722366          83.748842
                      0.391696736        -71.3007447        0.239459731         76.0750503       0.0619177488         -21.188883        0.102722366          83.748842
                      0.102722366          83.748842
                      0.391696736        -71.3007447        0.102722366          83.748842        0.102722366          83.748842       0.0619177488         -21.188883
                      0.239459731         76.0750503
                      0.391696736        -71.3007447        0.102722366          83.748842        0.102722366          83.748842        0.239459731         76.0750503
                     0.0619177488         -21.188883

2.12e+10        0.44855827        -34.8357358        0.392796293        -75.4357494        0.392796293        -75.4357494        0.392796293        -75.4357494
                      0.392796293        -75.4357494
                      0.392796293        -75.4357494       0.0618348439        -21.8291853        0.233733423         73.3844936        0.100574457         76.7248057
                      0.100574457         76.7248057
                      0.392796293        -75.4357494        0.233733423         73.3844936       0.0618348439        -21.8291853        0.100574457         76.7248057
                      0.100574457         76.7248057
                      0.392796293        -75.4357494        0.100574457         76.7248057        0.100574457         76.7248057       0.0618348439        -21.8291853
                      0.233733423         73.3844936
                      0.392796293        -75.4357494        0.100574457         76.7248057        0.100574457         76.7248057        0.233733423         73.3844936
                     0.0618348439        -21.8291853

2.1225e+10        0.44294068        -37.9349638        0.394027557        -79.5848587        0.394027557        -79.5848587        0.394027557        -79.5848587
                      0.394027557        -79.5848587
                      0.394027557        -79.5848587       0.0618811336        -22.5139509         0.22805446         70.6703478       0.0984270703         69.7015865
                     0.0984270703         69.7015865
                      0.394027557        -79.5848587         0.22805446         70.6703478       0.0618811336        -22.5139509       0.0984270703         69.7015865
                     0.0984270703         69.7015865
                      0.394027557        -79.5848587       0.0984270703         69.7015865       0.0984270703         69.7015865       0.0618811336        -22.5139509
                       0.22805446         70.6703478
                      0.394027557        -79.5848587       0.0984270703         69.7015865       0.0984270703         69.7015865         0.22805446         70.6703478
                     0.0618811336        -22.5139509

2.125e+10       0.436706579        -41.0484316         0.39538312        -83.7494268         0.39538312        -83.7494268         0.39538312        -83.7494268
                       0.39538312        -83.7494268
                       0.39538312        -83.7494268       0.0620503362        -23.2716631         0.22240013         67.9303861       0.0962803883         62.6783103
                     0.0962803883         62.6783103
                       0.39538312        -83.7494268         0.22240013         67.9303861       0.0620503362        -23.2716631       0.0962803883         62.6783103
                     0.0962803883         62.6783103
                       0.39538312        -83.7494268       0.0962803883         62.6783103       0.0962803883         62.6783103       0.0620503362        -23.2716631
                       0.22240013         67.9303861
                       0.39538312        -83.7494268       0.0962803883         62.6783103       0.0962803883         62.6783103         0.22240013         67.9303861
                     0.0620503362        -23.2716631

2.1275e+10       0.429861578        -44.1766657        0.396854853        -87.9307058        0.396854853        -87.9307058        0.396854853        -87.9307058
                      0.396854853        -87.9307058
                      0.396854853        -87.9307058       0.0623295759        -24.1286817        0.216748564          65.163154        0.094134357         55.6540127
                      0.094134357         55.6540127
                      0.396854853        -87.9307058        0.216748564          65.163154       0.0623295759        -24.1286817        0.094134357         55.6540127
                      0.094134357         55.6540127
                      0.396854853        -87.9307058        0.094134357         55.6540127        0.094134357         55.6540127       0.0623295759        -24.1286817
                      0.216748564          65.163154
                      0.396854853        -87.9307058        0.094134357         55.6540127        0.094134357         55.6540127        0.216748564          65.163154
                     0.0623295759        -24.1286817

2.13e+10       0.422412343        -47.3200313        0.398433919        -92.1298364        0.398433919        -92.1298364        0.398433919        -92.1298364
                      0.398433919        -92.1298364
                      0.398433919        -92.1298364       0.0627001889        -25.1076928        0.211079315         62.3679885       0.0919886888         48.6276544
                     0.0919886888         48.6276544
                      0.398433919        -92.1298364        0.211079315         62.3679885       0.0627001889        -25.1076928       0.0919886888         48.6276544
                     0.0919886888         48.6276544
                      0.398433919        -92.1298364       0.0919886888         48.6276544       0.0919886888         48.6276544       0.0627001889        -25.1076928
                      0.211079315         62.3679885
                      0.398433919        -92.1298364       0.0919886888         48.6276544       0.0919886888         48.6276544        0.211079315         62.3679885
                     0.0627001889        -25.1076928

2.1325e+10        0.41436686         -50.478713        0.400110769         -96.347838        0.400110769         -96.347838        0.400110769         -96.347838
                      0.400110769         -96.347838
                      0.400110769         -96.347838       0.0631388207        -26.2265831        0.205373849         59.5450185       0.0898428638         41.5981381
                     0.0898428638         41.5981381
                      0.400110769         -96.347838        0.205373849         59.5450185       0.0631388207        -26.2265831       0.0898428638         41.5981381
                     0.0898428638         41.5981381
                      0.400110769         -96.347838       0.0898428638         41.5981381       0.0898428638         41.5981381       0.0631388207        -26.2265831
                      0.205373849         59.5450185
                      0.400110769         -96.347838       0.0898428638         41.5981381       0.0898428638         41.5981381        0.205373849         59.5450185
                     0.0631388207        -26.2265831

2.135e+10       0.405734746        -53.6526944        0.401875163        -100.585599        0.401875163        -100.585599        0.401875163        -100.585599
                      0.401875163        -100.585599
                      0.401875163        -100.585599       0.0636186965        -27.4978942        0.199615962         56.6951483       0.0876961437          34.564327
                     0.0876961437          34.564327
                      0.401875163        -100.585599        0.199615962         56.6951483       0.0636186965        -27.4978942       0.0876961437          34.564327
                     0.0876961437          34.564327
                      0.401875163        -100.585599       0.0876961437          34.564327       0.0876961437          34.564327       0.0636186965        -27.4978942
                      0.199615962         56.6951483
                      0.401875163        -100.585599       0.0876961437          34.564327       0.0876961437          34.564327        0.199615962         56.6951483
                     0.0636186965        -27.4978942

2.1375e+10       0.396527576        -56.8417388        0.403716214        -104.843868        0.403716214        -104.843868        0.403716214        -104.843868
                      0.403716214        -104.843868
                      0.403716214        -104.843868       0.0641109336        -28.9288024        0.193792126         53.8200315       0.0855475957         27.5250636
                     0.0855475957         27.5250636
                      0.403716214        -104.843868        0.193792126         53.8200315       0.0641109336        -28.9288024       0.0855475957         27.5250636
                     0.0855475957         27.5250636
                      0.403716214        -104.843868       0.0855475957         27.5250636       0.0855475957         27.5250636       0.0641109336        -28.9288024
                      0.193792126         53.8200315
                      0.403716214        -104.843868       0.0855475957         27.5250636       0.0855475957         27.5250636        0.193792126         53.8200315
                     0.0641109336        -28.9288024

2.14e+10       0.386759177         -60.045366        0.405622421        -109.123241        0.405622421        -109.123241        0.405622421        -109.123241
                      0.405622421        -109.123241
                      0.405622421        -109.123241       0.0645857856        -30.5214309        0.187891729         50.9220356       0.0833961138         20.4791879
                     0.0833961138         20.4791879
                      0.405622421        -109.123241        0.187891729         50.9220356       0.0645857856        -30.5214309       0.0833961138         20.4791879
                     0.0833961138         20.4791879
                      0.405622421        -109.123241       0.0833961138         20.4791879       0.0833961138         20.4791879       0.0645857856        -30.5214309
                      0.187891729         50.9220356
                      0.405622421        -109.123241       0.0833961138         20.4791879       0.0833961138         20.4791879        0.187891729         50.9220356
                     0.0645857856        -30.5214309

2.1425e+10       0.376445944        -63.2628307        0.407581738        -113.424157        0.407581738        -113.424157        0.407581738        -113.424157
                      0.407581738        -113.424157
                      0.407581738        -113.424157       0.0650137582        -32.2734651        0.181907249         48.0042009       0.0812404521         13.4255556
                     0.0812404521         13.4255556
                      0.407581738        -113.424157        0.181907249         48.0042009       0.0650137582        -32.2734651       0.0812404521         13.4255556
                     0.0812404521         13.4255556
