! Created Mon Jun 10 12:44:15 2024
# hz S ma R 50
! 5 Port Network Data from SP1.SP block
! freq  magS11  angS11  magS12  angS12  magS13  angS13  magS14  angS14  
!       magS15  angS15  
!       magS21  angS21  magS22  angS22  magS23  angS23  
!       magS24  angS24  magS25  angS25  
!       magS31  angS31  magS32  angS32  
!       magS33  angS33  magS34  angS34  magS35  angS35  
!       magS41  angS41  
!       magS42  angS42  magS43  angS43  magS44  angS44  magS45  angS45  
!       magS51  angS51  magS52  angS52  magS53  angS53  magS54  angS54  
!       magS55  angS55  
!     
2.1e+10       0.253458496        -97.9951795        0.426796569        -150.484633        0.426796569        -150.484633        0.426796569        -150.484633
                      0.426796569        -150.484633
                      0.426796569        -150.484633       0.0229577437        -71.9281064        0.145491602         21.1930551       0.0623099672        -45.1616436
                     0.0623099672        -45.1616436
                      0.426796569        -150.484633        0.145491602         21.1930551       0.0229577437        -71.9281064       0.0623099672        -45.1616436
                     0.0623099672        -45.1616436
                      0.426796569        -150.484633       0.0623099672        -45.1616436       0.0623099672        -45.1616436       0.0229577437        -71.9281064
                      0.145491602         21.1930551
                      0.426796569        -150.484633       0.0623099672        -45.1616436       0.0623099672        -45.1616436        0.145491602         21.1930551
                     0.0229577437        -71.9281064

2.1025e+10       0.241813576        -101.063335        0.428236348        -155.116009        0.428236348        -155.116009        0.428236348        -155.116009
                      0.428236348        -155.116009
                      0.428236348        -155.116009       0.0246801771        -75.1169467        0.139330828         17.6902018       0.0601562167        -52.4492651
                     0.0601562167        -52.4492651
                      0.428236348        -155.116009        0.139330828         17.6902018       0.0246801771        -75.1169467       0.0601562167        -52.4492651
                     0.0601562167        -52.4492651
                      0.428236348        -155.116009       0.0601562167        -52.4492651       0.0601562167        -52.4492651       0.0246801771        -75.1169467
                      0.139330828         17.6902018
                      0.428236348        -155.116009       0.0601562167        -52.4492651       0.0601562167        -52.4492651        0.139330828         17.6902018
                     0.0246801771        -75.1169467

2.105e+10       0.230243661        -104.078857        0.429597717        -159.757521        0.429597717        -159.757521        0.429597717        -159.757521
                      0.429597717        -159.757521
                      0.429597717        -159.757521       0.0262998567        -78.5181181        0.133089419         14.1494736       0.0579932181        -59.7504087
                     0.0579932181        -59.7504087
                      0.429597717        -159.757521        0.133089419         14.1494736       0.0262998567        -78.5181181       0.0579932181        -59.7504087
                     0.0579932181        -59.7504087
                      0.429597717        -159.757521       0.0579932181        -59.7504087       0.0579932181        -59.7504087       0.0262998567        -78.5181181
                      0.133089419         14.1494736
                      0.429597717        -159.757521       0.0579932181        -59.7504087       0.0579932181        -59.7504087        0.133089419         14.1494736
                     0.0262998567        -78.5181181

2.1075e+10       0.218794727        -107.037604         0.43087724        -164.407898         0.43087724        -164.407898         0.43087724        -164.407898
                       0.43087724        -164.407898
                       0.43087724        -164.407898       0.0278052986        -82.0691965         0.12678135         10.5683152        0.055820325        -67.0658555
                      0.055820325        -67.0658555
                       0.43087724        -164.407898         0.12678135         10.5683152       0.0278052986        -82.0691965        0.055820325        -67.0658555
                      0.055820325        -67.0658555
                       0.43087724        -164.407898        0.055820325        -67.0658555        0.055820325        -67.0658555       0.0278052986        -82.0691965
                       0.12678135         10.5683152
                       0.43087724        -164.407898        0.055820325        -67.0658555        0.055820325        -67.0658555         0.12678135         10.5683152
                     0.0278052986        -82.0691965

2.11e+10       0.207511674        -109.935626        0.432072595        -169.065886        0.432072595        -169.065886        0.432072595        -169.065886
                      0.432072595        -169.065886
                      0.432072595        -169.065886       0.0291874373        -85.7248271        0.120420963         6.94267827       0.0536370733        -74.3964745
                     0.0536370733        -74.3964745
                      0.432072595        -169.065886        0.120420963         6.94267827       0.0291874373        -85.7248271       0.0536370733        -74.3964745
                     0.0536370733        -74.3964745
                      0.432072595        -169.065886       0.0536370733        -74.3964745       0.0536370733        -74.3964745       0.0291874373        -85.7248271
                      0.120420963         6.94267827
                      0.432072595        -169.065886       0.0536370733        -74.3964745       0.0536370733        -74.3964745        0.120420963         6.94267827
                     0.0291874373        -85.7248271

2.1125e+10       0.196437866        -112.769294        0.433182517        -173.730261        0.433182517        -173.730261        0.433182517        -173.730261
                      0.433182517        -173.730261
                      0.433182517        -173.730261       0.0304391305        -89.4515469        0.114022697         3.26668711        0.051443166        -81.7432751
                      0.051443166        -81.7432751
                      0.433182517        -173.730261        0.114022697         3.26668711       0.0304391305        -89.4515469        0.051443166        -81.7432751
                      0.051443166        -81.7432751
                      0.433182517        -173.730261        0.051443166        -81.7432751        0.051443166        -81.7432751       0.0304391305        -89.4515469
                      0.114022697         3.26668711
                      0.433182517        -173.730261        0.051443166        -81.7432751        0.051443166        -81.7432751        0.114022697         3.26668711
                     0.0304391305        -89.4515469

2.115e+10       0.185614652        -115.535493        0.434206783        -178.399849        0.434206783        -178.399849        0.434206783        -178.399849
                      0.434206783        -178.399849
                      0.434206783        -178.399849        0.031554929        -93.2245914         0.10760092       -0.467794742       0.0492384735        -89.1074657
                     0.0492384735        -89.1074657
                      0.434206783        -178.399849         0.10760092       -0.467794742        0.031554929        -93.2245914       0.0492384735        -89.1074657
                     0.0492384735        -89.1074657
                      0.434206783        -178.399849       0.0492384735        -89.1074657       0.0492384735        -89.1074657        0.031554929        -93.2245914
                       0.10760092       -0.467794742
                      0.434206783        -178.399849       0.0492384735        -89.1074657       0.0492384735        -89.1074657         0.10760092       -0.467794742
                      0.031554929        -93.2245914

2.1175e+10       0.175080923        -118.231833        0.435146114         176.926466        0.435146114         176.926466        0.435146114         176.926466
                      0.435146114         176.926466
                      0.435146114         176.926466       0.0325307831        -97.0255473        0.101169792        -4.27174121       0.0470230136        -96.4905295
                     0.0470230136        -96.4905295
                      0.435146114         176.926466        0.101169792        -4.27174121       0.0325307831        -97.0255473       0.0470230136        -96.4905295
                     0.0470230136        -96.4905295
                      0.435146114         176.926466       0.0470230136        -96.4905295       0.0470230136        -96.4905295       0.0325307831        -97.0255473
                      0.101169792        -4.27174121
                      0.435146114         176.926466       0.0470230136        -96.4905295       0.0470230136        -96.4905295        0.101169792        -4.27174121
                     0.0325307831        -97.0255473

2.12e+10       0.164872651        -120.856935        0.436002117         172.249723        0.436002117         172.249723        0.436002117         172.249723
                      0.436002117         172.249723
                      0.436002117         172.249723       0.0333638979        -100.840901       0.0947432374        -8.15974669       0.0447969439        -103.894314
                     0.0447969439        -103.894314
                      0.436002117         172.249723       0.0947432374        -8.15974669       0.0333638979        -100.840901       0.0447969439        -103.894314
                     0.0447969439        -103.894314
                      0.436002117         172.249723       0.0447969439        -103.894314       0.0447969439        -103.894314       0.0333638979        -100.840901
                     0.0947432374        -8.15974669
                      0.436002117         172.249723       0.0447969439        -103.894314       0.0447969439        -103.894314       0.0947432374        -8.15974669
                     0.0333638979        -100.840901

2.1225e+10       0.155022467         -123.41077        0.436777176          167.57088        0.436777176          167.57088        0.436777176          167.57088
                      0.436777176          167.57088
                      0.436777176          167.57088       0.0340525464         -104.66096       0.0883350098        -12.1511121       0.0425605452        -111.321149
                     0.0425605452        -111.321149
                      0.436777176          167.57088       0.0883350098        -12.1511121       0.0340525464         -104.66096       0.0425605452        -111.321149
                     0.0425605452        -111.321149
                      0.436777176          167.57088       0.0425605452        -111.321149       0.0425605452        -111.321149       0.0340525464         -104.66096
                     0.0883350098        -12.1511121
                      0.436777176          167.57088       0.0425605452        -111.321149       0.0425605452        -111.321149       0.0883350098        -12.1511121
                     0.0340525464         -104.66096

2.125e+10       0.145559257        -125.895066        0.437474346         162.890802        0.437474346         162.890802        0.437474346         162.890802
                      0.437474346         162.890802
                      0.437474346         162.890802       0.0345959023        -108.479115       0.0819588994        -16.2713819       0.0403142079        -118.773993
                     0.0403142079        -118.773993
                      0.437474346         162.890802       0.0819588994        -16.2713819       0.0345959023        -108.479115       0.0403142079        -118.773993
                     0.0403142079        -118.773993
                      0.437474346         162.890802       0.0403142079        -118.773993       0.0403142079        -118.773993       0.0345959023        -108.479115
                     0.0819588994        -16.2713819
                      0.437474346         162.890802       0.0403142079        -118.773993       0.0403142079        -118.773993       0.0819588994        -16.2713819
                     0.0345959023        -108.479115

2.1275e+10       0.136507776         -128.31381        0.438097252         158.210258        0.438097252         158.210258        0.438097252         158.210258
                      0.438097252         158.210258
                      0.438097252         158.210258       0.0349939172        -112.291367       0.0756291299        -20.5545624       0.0380584226        -126.256638
                     0.0380584226        -126.256638
                      0.438097252         158.210258       0.0756291299        -20.5545624       0.0349939172        -112.291367       0.0380584226        -126.256638
                     0.0380584226        -126.256638
                      0.438097252         158.210258       0.0380584226        -126.256638       0.0380584226        -126.256638       0.0349939172        -112.291367
                     0.0756291299        -20.5545624
                      0.438097252         158.210258       0.0380584226        -126.256638       0.0380584226        -126.256638       0.0756291299        -20.5545624
                     0.0349939172        -112.291367

2.13e+10       0.127888318        -130.673803        0.438649967         153.529914        0.438649967         153.529914        0.438649967         153.529914
                      0.438649967         153.529914
                      0.438649967         153.529914       0.0352471605        -116.095962        0.069361014        -25.0463871       0.0357937695        -133.773974
                     0.0357937695        -133.773974
                      0.438649967         153.529914        0.069361014        -25.0463871       0.0352471605        -116.095962       0.0357937695        -133.773974
                     0.0357937695        -133.773974
                      0.438649967         153.529914       0.0357937695        -133.773974       0.0357937695        -133.773974       0.0352471605        -116.095962
                      0.069361014        -25.0463871
                      0.438649967         153.529914       0.0357937695        -133.773974       0.0357937695        -133.773974        0.069361014        -25.0463871
                     0.0352471605        -116.095962

2.1325e+10       0.119716441        -132.985309        0.439136891         148.850336        0.439136891         148.850336        0.439136891         148.850336
                      0.439136891         148.850336
                      0.439136891         148.850336       0.0353566793        -119.893171       0.0631720141        -29.8092178       0.0335209128        -141.332377
                     0.0335209128        -141.332377
                      0.439136891         148.850336       0.0631720141        -29.8092178       0.0353566793        -119.893171       0.0335209128        -141.332377
                     0.0335209128        -141.332377
                      0.439136891         148.850336       0.0335209128        -141.332377       0.0335209128        -141.332377       0.0353566793        -119.893171
                     0.0631720141        -29.8092178
                      0.439136891         148.850336       0.0335209128        -141.332377       0.0335209128        -141.332377       0.0631720141        -29.8092178
                     0.0353566793        -119.893171

2.135e+10       0.112002763        -135.262759        0.439562652         144.171986        0.439562652         144.171986        0.439562652         144.171986
                      0.439562652         144.171986
                      0.439562652         144.171986       0.0353238855         -123.68518       0.0570834412        -34.9295312       0.0312406028        -148.940246
                     0.0312406028        -148.940246
                      0.439562652         144.171986       0.0570834412        -34.9295312       0.0353238855         -123.68518       0.0312406028        -148.940246
                     0.0312406028        -148.940246
                      0.439562652         144.171986       0.0312406028        -148.940246       0.0312406028        -148.940246       0.0353238855         -123.68518
                     0.0570834412        -34.9295312
                      0.439562652         144.171986       0.0312406028        -148.940246       0.0312406028        -148.940246       0.0570834412        -34.9295312
                     0.0353238855         -123.68518

2.1375e+10       0.104752902        -137.525483        0.439931979         139.495228        0.439931979         139.495228        0.439931979         139.495228
                      0.439931979         139.495228
                      0.439931979         139.495228       0.0351504155        -127.476038       0.0511232043        -40.5295195       0.0289536827        -156.608808
                     0.0289536827        -156.608808
                      0.439931979         139.495228       0.0511232043        -40.5295195       0.0351504155        -127.476038       0.0289536827        -156.608808
                     0.0289536827        -156.608808
                      0.439931979         139.495228       0.0289536827        -156.608808       0.0289536827        -156.608808       0.0351504155        -127.476038
                     0.0511232043        -40.5295195
                      0.439931979         139.495228       0.0289536827        -156.608808       0.0289536827        -156.608808       0.0511232043        -40.5295195
                     0.0351504155        -127.476038

2.14e+10      0.0979675364        -139.798449        0.440249612         134.820328        0.440249612         134.820328        0.440249612         134.820328
                      0.440249612         134.820328
                      0.440249612         134.820328       0.0348380554         -131.27172       0.0453303779        -46.7851534        0.026661112        -164.353324
                      0.026661112        -164.353324
                      0.440249612         134.820328       0.0453303779        -46.7851534       0.0348380554         -131.27172        0.026661112        -164.353324
                      0.026661112        -164.353324
                      0.440249612         134.820328        0.026661112        -164.353324        0.026661112        -164.353324       0.0348380554         -131.27172
                     0.0453303779        -46.7851534
                      0.440249612         134.820328        0.026661112        -164.353324        0.026661112        -164.353324       0.0453303779        -46.7851534
                     0.0348380554         -131.27172

2.1425e+10      0.0916427268        -142.112949        0.440520201         130.147463        0.440520201         130.147463        0.440520201         130.147463
                      0.440520201         130.147463
                      0.440520201         130.147463       0.0343886334        -135.080253       0.0397629481        -53.9538122        0.024364006         -172.19499
                      0.024364006         -172.19499
                      0.440520201         130.147463       0.0397629481        -53.9538122       0.0343886334        -135.080253        0.024364006         -172.19499
                      0.024364006         -172.19499
