! Created Mon Jun 10 12:46:52 2024
# hz S ma R 50
! 5 Port Network Data from SP1.SP block
! freq  magS11  angS11  magS12  angS12  magS13  angS13  magS14  angS14  
!       magS15  angS15  
!       magS21  angS21  magS22  angS22  magS23  angS23  
!       magS24  angS24  magS25  angS25  
!       magS31  angS31  magS32  angS32  
!       magS33  angS33  magS34  angS34  magS35  angS35  
!       magS41  angS41  
!       magS42  angS42  magS43  angS43  magS44  angS44  magS45  angS45  
!       magS51  angS51  magS52  angS52  magS53  angS53  magS54  angS54  
!       magS55  angS55  
!     
2.1e+10       0.291584154        -85.5574809        0.418262273        -140.694201        0.418262273        -140.694201        0.418262273        -140.694201
                      0.418262273        -140.694201
                      0.418262273        -140.694201       0.0468625678        -50.1961701        0.148632316          28.819148       0.0667696083        -30.6786386
                     0.0667696083        -30.6786386
                      0.418262273        -140.694201        0.148632316          28.819148       0.0468625678        -50.1961701       0.0667696083        -30.6786386
                     0.0667696083        -30.6786386
                      0.418262273        -140.694201       0.0667696083        -30.6786386       0.0667696083        -30.6786386       0.0468625678        -50.1961701
                      0.148632316          28.819148
                      0.418262273        -140.694201       0.0667696083        -30.6786386       0.0667696083        -30.6786386        0.148632316          28.819148
                     0.0468625678        -50.1961701

2.1025e+10       0.278753261        -88.8177653        0.420068157        -145.278525        0.420068157        -145.278525        0.420068157        -145.278525
                      0.420068157        -145.278525
                      0.420068157        -145.278525       0.0472189703        -53.1009522        0.142232024         25.6362087       0.0645608474        -37.9878339
                     0.0645608474        -37.9878339
                      0.420068157        -145.278525        0.142232024         25.6362087       0.0472189703        -53.1009522       0.0645608474        -37.9878339
                     0.0645608474        -37.9878339
                      0.420068157        -145.278525       0.0645608474        -37.9878339       0.0645608474        -37.9878339       0.0472189703        -53.1009522
                      0.142232024         25.6362087
                      0.420068157        -145.278525       0.0645608474        -37.9878339       0.0645608474        -37.9878339        0.142232024         25.6362087
                     0.0472189703        -53.1009522

2.105e+10       0.265736339        -92.0581773        0.421815497        -149.879354        0.421815497        -149.879354        0.421815497        -149.879354
                      0.421815497        -149.879354
                      0.421815497        -149.879354       0.0474135569        -56.1206446        0.135767736         22.4508789       0.0623404331        -45.3110957
                     0.0623404331        -45.3110957
                      0.421815497        -149.879354        0.135767736         22.4508789       0.0474135569        -56.1206446       0.0623404331        -45.3110957
                     0.0623404331        -45.3110957
                      0.421815497        -149.879354       0.0623404331        -45.3110957       0.0623404331        -45.3110957       0.0474135569        -56.1206446
                      0.135767736         22.4508789
                      0.421815497        -149.879354       0.0623404331        -45.3110957       0.0623404331        -45.3110957        0.135767736         22.4508789
                     0.0474135569        -56.1206446

2.1075e+10        0.25258243        -95.2739662        0.423495091        -154.495483        0.423495091        -154.495483        0.423495091        -154.495483
                      0.423495091        -154.495483
                      0.423495091        -154.495483       0.0474392413        -59.2321079        0.129254363         19.2667941       0.0601075035        -52.6491942
                     0.0601075035        -52.6491942
                      0.423495091        -154.495483        0.129254363         19.2667941       0.0474392413        -59.2321079       0.0601075035        -52.6491942
                     0.0601075035        -52.6491942
                      0.423495091        -154.495483       0.0601075035        -52.6491942       0.0601075035        -52.6491942       0.0474392413        -59.2321079
                      0.129254363         19.2667941
                      0.423495091        -154.495483       0.0601075035        -52.6491942       0.0601075035        -52.6491942        0.129254363         19.2667941
                     0.0474392413        -59.2321079

2.11e+10       0.239342642        -98.4598634        0.425098754        -159.125621        0.425098754        -159.125621        0.425098754        -159.125621
                      0.425098754        -159.125621
                      0.425098754        -159.125621       0.0472921631        -62.4139296        0.122707791         16.0871694        0.057861385        -60.0029149
                      0.057861385        -60.0029149
                      0.425098754        -159.125621        0.122707791         16.0871694       0.0472921631        -62.4139296        0.057861385        -60.0029149
                      0.057861385        -60.0029149
                      0.425098754        -159.125621        0.057861385        -60.0029149        0.057861385        -60.0029149       0.0472921631        -62.4139296
                      0.122707791         16.0871694
                      0.425098754        -159.125621        0.057861385        -60.0029149        0.057861385        -60.0029149        0.122707791         16.0871694
                     0.0472921631        -62.4139296

2.1125e+10       0.226069786         -101.61004        0.426619419        -163.768403        0.426619419        -163.768403        0.426619419        -163.768403
                      0.426619419        -163.768403
                      0.426619419        -163.768403       0.0469713986        -65.6462579        0.116144429         12.9146597          0.0556016        -67.3730992
                        0.0556016        -67.3730992
                      0.426619419        -163.768403        0.116144429         12.9146597       0.0469713986        -65.6462579          0.0556016        -67.3730992
                        0.0556016        -67.3730992
                      0.426619419        -163.768403          0.0556016        -67.3730992          0.0556016        -67.3730992       0.0469713986        -65.6462579
                      0.116144429         12.9146597
                      0.426619419        -163.768403          0.0556016        -67.3730992          0.0556016        -67.3730992        0.116144429         12.9146597
                     0.0469713986        -65.6462579

2.115e+10       0.212817959        -104.718068        0.428051234        -168.422416        0.428051234        -168.422416        0.428051234        -168.422416
                      0.428051234        -168.422416
                      0.428051234        -168.422416       0.0464787006        -68.9106789        0.109580776         9.75119768       0.0533278752        -74.7606926
                     0.0533278752        -74.7606926
                      0.428051234        -168.422416        0.109580776         9.75119768       0.0464787006        -68.9106789       0.0533278752        -74.7606926
                     0.0533278752        -74.7606926
                      0.428051234        -168.422416       0.0533278752        -74.7606926       0.0533278752        -74.7606926       0.0464787006        -68.9106789
                      0.109580776         9.75119768
                      0.428051234        -168.422416       0.0533278752        -74.7606926       0.0533278752        -74.7606926        0.109580776         9.75119768
                     0.0464787006        -68.9106789

2.1175e+10       0.199642093        -107.776869        0.429389606        -173.086218        0.429389606        -173.086218        0.429389606        -173.086218
                      0.429389606        -173.086218
                      0.429389606        -173.086218       0.0458181963        -72.1899977        0.103032982         6.59780156       0.0510401357        -82.1668067
                     0.0510401357        -82.1668067
                      0.429389606        -173.086218        0.103032982         6.59780156       0.0458181963        -72.1899977       0.0510401357        -82.1668067
                     0.0510401357        -82.1668067
                      0.429389606        -173.086218       0.0510401357        -82.1668067       0.0510401357        -82.1668067       0.0458181963        -72.1899977
                      0.103032982         6.59780156
                      0.429389606        -173.086218       0.0510401357        -82.1668067       0.0510401357        -82.1668067        0.103032982         6.59780156
                     0.0458181963        -72.1899977

2.12e+10       0.186597463         -110.77866        0.430631247        -177.758358        0.430631247        -177.758358        0.430631247        -177.758358
                      0.430631247        -177.758358
                      0.430631247        -177.758358       0.0449961163        -75.4681053       0.0965164494         3.45434226       0.0487385011        -89.5927944
                     0.0487385011        -89.5927944
                      0.430631247        -177.758358       0.0965164494         3.45434226       0.0449961163        -75.4681053       0.0487385011        -89.5927944
                     0.0487385011        -89.5927944
                      0.430631247        -177.758358       0.0487385011        -89.5927944       0.0487385011        -89.5927944       0.0449961163        -75.4681053
                     0.0965164494         3.45434226
                      0.430631247        -177.758358       0.0487385011        -89.5927944       0.0487385011        -89.5927944       0.0965164494         3.45434226
                     0.0449961163        -75.4681053

2.1225e+10       0.173739176        -113.714902        0.431774177         177.562597        0.431774177         177.562597        0.431774177         177.562597
                      0.431774177         177.562597
                      0.431774177         177.562597       0.0440205017        -78.7298198       0.0900454614        0.319251301       0.0464232747        -97.0403455
                     0.0464232747        -97.0403455
                      0.431774177         177.562597       0.0900454614        0.319251301       0.0440205017        -78.7298198       0.0464232747        -97.0403455
                     0.0464232747        -97.0403455
                      0.431774177         177.562597       0.0464232747        -97.0403455       0.0464232747        -97.0403455       0.0440205017        -78.7298198
                     0.0900454614        0.319251301
                      0.431774177         177.562597       0.0464232747        -97.0403455       0.0464232747        -97.0403455       0.0900454614        0.319251301
                     0.0440205017        -78.7298198

2.125e+10        0.16112166        -116.576246        0.432817697         172.878047        0.432817697         172.878047        0.432817697         172.878047
                      0.432817697         172.878047
                      0.432817697         172.878047       0.0429008913        -81.9607174       0.0836328528        -2.81085807       0.0440949273        -104.511607
                     0.0440949273        -104.511607
                      0.432817697         172.878047       0.0836328528        -2.81085807       0.0429008913        -81.9607174       0.0440949273        -104.511607
                     0.0440949273        -104.511607
                      0.432817697         172.878047       0.0440949273        -104.511607       0.0440949273        -104.511607       0.0429008913        -81.9607174
                     0.0836328528        -2.81085807
                      0.432817697         172.878047       0.0440949273        -104.511607       0.0440949273        -104.511607       0.0836328528        -2.81085807
                     0.0429008913        -81.9607174

2.1275e+10       0.148798104        -119.352506         0.43376237         168.189336         0.43376237         168.189336         0.43376237         168.189336
                       0.43376237         168.189336
                       0.43376237         168.189336       0.0416480601        -85.1470667        0.077289756        -5.94170169       0.0417540871         -112.00934
                     0.0417540871         -112.00934
                       0.43376237         168.189336        0.077289756        -5.94170169       0.0416480601        -85.1470667       0.0417540871         -112.00934
                     0.0417540871         -112.00934
                       0.43376237         168.189336       0.0417540871         -112.00934       0.0417540871         -112.00934       0.0416480601        -85.1470667
                      0.077289756        -5.94170169
                       0.43376237         168.189336       0.0417540871         -112.00934       0.0417540871         -112.00934        0.077289756        -5.94170169
                     0.0416480601        -85.1470667

2.13e+10       0.136819952        -122.032642        0.434609909         163.497734        0.434609909         163.497734        0.434609909         163.497734
                      0.434609909         163.497734
                      0.434609909         163.497734       0.0402736683        -88.2756263       0.0710253906        -9.08204355       0.0394015168        -119.537124
                     0.0394015168        -119.537124
                      0.434609909         163.497734       0.0710253906        -9.08204355       0.0402736683        -88.2756263       0.0394015168        -119.537124
                     0.0394015168        -119.537124
                      0.434609909         163.497734       0.0394015168        -119.537124       0.0394015168        -119.537124       0.0402736683        -88.2756263
                     0.0710253906        -9.08204355
                      0.434609909         163.497734       0.0394015168        -119.537124       0.0394015168        -119.537124       0.0710253906        -9.08204355
                     0.0402736683        -88.2756263

2.1325e+10       0.125236344        -124.604819        0.435363113         158.804418        0.435363113         158.804418        0.435363113         158.804418
                      0.435363113         158.804418
                      0.435363113         158.804418       0.0387899872         -91.333565       0.0648469584        -12.2447529       0.0370381026        -127.099641
                     0.0370381026        -127.099641
                      0.435363113         158.804418       0.0648469584        -12.2447529       0.0387899872         -91.333565       0.0370381026        -127.099641
                     0.0370381026        -127.099641
                      0.435363113         158.804418       0.0370381026        -127.099641       0.0370381026        -127.099641       0.0387899872         -91.333565
                     0.0648469584        -12.2447529
                      0.435363113         158.804418       0.0370381026        -127.099641       0.0370381026        -127.099641       0.0648469584        -12.2447529
                     0.0387899872         -91.333565

2.135e+10       0.114093568        -127.056558        0.436025736         154.110461        0.436025736         154.110461        0.436025736         154.110461
                      0.436025736         154.110461
                      0.436025736         154.110461       0.0372095863        -94.3083015        0.058759624        -15.4484316       0.0346648405        -134.703061
                     0.0346648405        -134.703061
                      0.436025736         154.110461        0.058759624        -15.4484316       0.0372095863        -94.3083015       0.0346648405        -134.703061
                     0.0346648405        -134.703061
                      0.436025736         154.110461       0.0346648405        -134.703061       0.0346648405        -134.703061       0.0372095863        -94.3083015
                      0.058759624        -15.4484316
                      0.436025736         154.110461       0.0346648405        -134.703061       0.0346648405        -134.703061        0.058759624        -15.4484316
                     0.0372095863        -94.3083015

2.1375e+10       0.103434477        -129.375059        0.436602369         149.416821        0.436602369         149.416821        0.436602369         149.416821
                      0.436602369         149.416821
                      0.436602369         149.416821       0.0355450566        -97.1873567       0.0527666233        -18.7200396       0.0322828303        -142.355598
                     0.0322828303        -142.355598
                      0.436602369         149.416821       0.0527666233        -18.7200396       0.0355450566        -97.1873567       0.0322828303        -142.355598
                     0.0322828303        -142.355598
                      0.436602369         149.416821       0.0322828303        -142.355598       0.0322828303        -142.355598       0.0355450566        -97.1873567
                     0.0527666233        -18.7200396
                      0.436602369         149.416821       0.0322828303        -142.355598       0.0322828303        -142.355598       0.0527666233        -18.7200396
                     0.0355450566        -97.1873567

2.14e+10      0.0932978954         -131.54779        0.437098274         144.724326        0.437098274         144.724326        0.437098274         144.724326
                      0.437098274         144.724326
                      0.437098274         144.724326       0.0338086957        -99.9580814       0.0468695252        -22.0993506       0.0298932739        -150.068329
                     0.0298932739        -150.068329
                      0.437098274         144.724326       0.0468695252        -22.0993506       0.0338086957        -99.9580814       0.0298932739        -150.068329
                     0.0298932739        -150.068329
                      0.437098274         144.724326       0.0298932739        -150.068329       0.0298932739        -150.068329       0.0338086957        -99.9580814
                     0.0468695252        -22.0993506
                      0.437098274         144.724326       0.0298932739        -150.068329       0.0298932739        -150.068329       0.0468695252        -22.0993506
                     0.0338086957        -99.9580814

2.1425e+10      0.0837179131        -133.563528        0.437519256         140.033674        0.437519256         140.033674        0.437519256         140.033674
                      0.437519256         140.033674
                      0.437519256         140.033674       0.0320122811        -102.607396       0.0410687489        -25.6469444       0.0274974931        -157.856428
                     0.0274974931        -157.856428
                      0.437519256         140.033674       0.0410687489        -25.6469444       0.0320122811        -102.607396       0.0274974931        -157.856428
                     0.0274974931        -157.856428
