! Created Mon Jun 10 12:42:21 2024
# hz S ma R 50
! 5 Port Network Data from SP1.SP block
! freq  magS11  angS11  magS12  angS12  magS13  angS13  magS14  angS14  
!       magS15  angS15  
!       magS21  angS21  magS22  angS22  magS23  angS23  
!       magS24  angS24  magS25  angS25  
!       magS31  angS31  magS32  angS32  
!       magS33  angS33  magS34  angS34  magS35  angS35  
!       magS41  angS41  
!       magS42  angS42  magS43  angS43  magS44  angS44  magS45  angS45  
!       magS51  angS51  magS52  angS52  magS53  angS53  magS54  angS54  
!       magS55  angS55  
!     
2.1e+10       0.290815746        -86.3811759        0.421564146        -141.473559        0.421564146        -141.473559        0.421564146        -141.473559
                      0.421564146        -141.473559
                      0.421564146        -141.473559       0.0470339965        -50.7932554        0.148298774         28.0442766       0.0671354505        -32.1290685
                     0.0671354505        -32.1290685
                      0.421564146        -141.473559        0.148298774         28.0442766       0.0470339965        -50.7932554       0.0671354505        -32.1290685
                     0.0671354505        -32.1290685
                      0.421564146        -141.473559       0.0671354505        -32.1290685       0.0671354505        -32.1290685       0.0470339965        -50.7932554
                      0.148298774         28.0442766
                      0.421564146        -141.473559       0.0671354505        -32.1290685       0.0671354505        -32.1290685        0.148298774         28.0442766
                     0.0470339965        -50.7932554

2.1025e+10       0.277876124        -89.6524924        0.423387205        -146.063061        0.423387205        -146.063061        0.423387205        -146.063061
                      0.423387205        -146.063061
                      0.423387205        -146.063061       0.0473821086        -53.7342067        0.141858236         24.8466371       0.0649016094        -39.4492681
                     0.0649016094        -39.4492681
                      0.423387205        -146.063061        0.141858236         24.8466371       0.0473821086        -53.7342067       0.0649016094        -39.4492681
                     0.0649016094        -39.4492681
                      0.423387205        -146.063061       0.0649016094        -39.4492681       0.0649016094        -39.4492681       0.0473821086        -53.7342067
                      0.141858236         24.8466371
                      0.423387205        -146.063061       0.0649016094        -39.4492681       0.0649016094        -39.4492681        0.141858236         24.8466371
                     0.0473821086        -53.7342067

2.105e+10       0.264757317        -92.9035371        0.425148826         -150.66896        0.425148826         -150.66896        0.425148826         -150.66896
                      0.425148826         -150.66896
                      0.425148826         -150.66896       0.0475649838        -56.7872238        0.135354832         21.6463345       0.0626557651        -46.7842482
                     0.0626557651        -46.7842482
                      0.425148826         -150.66896        0.135354832         21.6463345       0.0475649838        -56.7872238       0.0626557651        -46.7842482
                     0.0626557651        -46.7842482
                      0.425148826         -150.66896       0.0626557651        -46.7842482       0.0626557651        -46.7842482       0.0475649838        -56.7872238
                      0.135354832         21.6463345
                      0.425148826         -150.66896       0.0626557651        -46.7842482       0.0626557651        -46.7842482        0.135354832         21.6463345
                     0.0475649838        -56.7872238

2.1075e+10       0.251509172        -96.1294835        0.426839841         -155.29002        0.426839841         -155.29002        0.426839841         -155.29002
                      0.426839841         -155.29002
                      0.426839841         -155.29002       0.0475760287        -59.9291863        0.128803926         18.4468586       0.0603970699        -54.1348366
                     0.0603970699        -54.1348366
                      0.426839841         -155.29002        0.128803926         18.4468586       0.0475760287        -59.9291863       0.0603970699        -54.1348366
                     0.0603970699        -54.1348366
                      0.426839841         -155.29002       0.0603970699        -54.1348366       0.0603970699        -54.1348366       0.0475760287        -59.9291863
                      0.128803926         18.4468586
                      0.426839841         -155.29002       0.0603970699        -54.1348366       0.0603970699        -54.1348366        0.128803926         18.4468586
                     0.0475760287        -59.9291863

2.11e+10        0.23818357        -99.3249779         0.42845214        -159.924918         0.42845214        -159.924918         0.42845214        -159.924918
                       0.42845214        -159.924918
                       0.42845214        -159.924918       0.0474118627        -63.1387273        0.122221788         15.2512268       0.0581248693        -61.5018922
                     0.0581248693        -61.5018922
                       0.42845214        -159.924918        0.122221788         15.2512268       0.0474118627        -63.1387273       0.0581248693        -61.5018922
                     0.0581248693        -61.5018922
                       0.42845214        -159.924918       0.0581248693        -61.5018922       0.0581248693        -61.5018922       0.0474118627        -63.1387273
                      0.122221788         15.2512268
                       0.42845214        -159.924918       0.0581248693        -61.5018922       0.0581248693        -61.5018922        0.122221788         15.2512268
                     0.0474118627        -63.1387273

2.1125e+10       0.224834057        -102.484105        0.429978778        -164.572264        0.429978778        -164.572264        0.429978778        -164.572264
                      0.429978778        -164.572264
                      0.429978778        -164.572264       0.0470720483        -66.3961106        0.115625155         12.0618328       0.0558387155        -68.8863472
                     0.0558387155        -68.8863472
                      0.429978778        -164.572264        0.115625155         12.0618328       0.0470720483        -66.3961106       0.0558387155        -68.8863472
                     0.0558387155        -68.8863472
                      0.429978778        -164.572264       0.0558387155        -68.8863472       0.0558387155        -68.8863472       0.0470720483        -66.3961106
                      0.115625155         12.0618328
                      0.429978778        -164.572264       0.0558387155        -68.8863472       0.0558387155        -68.8863472        0.115625155         12.0618328
                     0.0470720483        -66.3961106

2.115e+10       0.211515404         -105.60034        0.431414055        -169.230622        0.431414055        -169.230622        0.431414055        -169.230622
                      0.431414055        -169.230622
                      0.431414055        -169.230622       0.0465587976        -69.6830294         0.10903077         8.88027091       0.0535383677        -76.2892624
                     0.0535383677        -76.2892624
                      0.431414055        -169.230622         0.10903077         8.88027091       0.0465587976        -69.6830294       0.0535383677        -76.2892624
                     0.0535383677        -76.2892624
                      0.431414055        -169.230622       0.0535383677        -76.2892624       0.0535383677        -76.2892624       0.0465587976        -69.6830294
                       0.10903077         8.88027091
                      0.431414055        -169.230622       0.0535383677        -76.2892624       0.0535383677        -76.2892624         0.10903077         8.88027091
                     0.0465587976        -69.6830294

2.1175e+10       0.198283146        -108.666498         0.43275357        -173.898529         0.43275357        -173.898529         0.43275357        -173.898529
                       0.43275357        -173.898529
                       0.43275357        -173.898529       0.0458766852        -72.9824295        0.102454958         5.70712488       0.0512237902        -83.7118942
                     0.0512237902        -83.7118942
                       0.43275357        -173.898529        0.102454958         5.70712488       0.0458766852        -72.9824295       0.0512237902        -83.7118942
                     0.0512237902        -83.7118942
                       0.43275357        -173.898529       0.0512237902        -83.7118942       0.0512237902        -83.7118942       0.0458766852        -72.9824295
                      0.102454958         5.70712488
                       0.43275357        -173.898529       0.0512237902        -83.7118942       0.0512237902        -83.7118942        0.102454958         5.70712488
                     0.0458766852        -72.9824295

2.12e+10       0.185193082         -111.67468        0.433994248        -178.574522        0.433994248        -178.574522        0.433994248        -178.574522
                      0.433994248        -178.574522
                      0.433994248        -178.574522       0.0450323542        -76.2783364       0.0959132156         2.54170935       0.0488951443        -91.1557778
                     0.0488951443        -91.1557778
                      0.433994248        -178.574522       0.0959132156         2.54170935       0.0450323542        -76.2783364       0.0488951443        -91.1557778
                     0.0488951443        -91.1557778
                      0.433994248        -178.574522       0.0488951443        -91.1557778       0.0488951443        -91.1557778       0.0450323542        -76.2783364
                     0.0959132156         2.54170935
                      0.433994248        -178.574522       0.0488951443        -91.1557778       0.0488951443        -91.1557778       0.0959132156         2.54170935
                     0.0450323542        -76.2783364

2.1225e+10        0.17230076        -114.616225        0.435134353         176.742843        0.435134353         176.742843        0.435134353         176.742843
                      0.435134353         176.742843
                      0.435134353         176.742843       0.0440342319        -79.5557233       0.0894198493       -0.618258032       0.0465527788        -98.6228325
                     0.0465527788        -98.6228325
                      0.435134353         176.742843       0.0894198493       -0.618258032       0.0440342319        -79.5557233       0.0465527788        -98.6228325
                     0.0465527788        -98.6228325
                      0.435134353         176.742843       0.0465527788        -98.6228325       0.0465527788        -98.6228325       0.0440342319        -79.5557233
                     0.0894198493       -0.618258032
                      0.435134353         176.742843       0.0465527788        -98.6228325       0.0465527788        -98.6228325       0.0894198493       -0.618258032
                     0.0440342319        -79.5557233

2.125e+10       0.159660944        -117.481652        0.436173449         172.054972        0.436173449         172.054972        0.436173449         172.054972
                      0.436173449         172.054972
                      0.436173449         172.054972       0.0428922149        -82.8003483       0.0829876568        -3.77708678       0.0441972141        -106.115496
                     0.0441972141        -106.115496
                      0.436173449         172.054972       0.0829876568        -3.77708678       0.0428922149        -82.8003483       0.0441972141        -106.115496
                     0.0441972141        -106.115496
                      0.436173449         172.054972       0.0441972141        -106.115496       0.0441972141        -106.115496       0.0428922149        -82.8003483
                     0.0829876568        -3.77708678
                      0.436173449         172.054972       0.0441972141        -106.115496       0.0441972141        -106.115496       0.0829876568        -3.77708678
                     0.0428922149        -82.8003483

2.1275e+10       0.147327071        -120.260634        0.437112362         167.363209        0.437112362         167.363209        0.437112362         167.363209
                      0.437112362         167.363209
                      0.437112362         167.363209       0.0416173757        -85.9986483       0.0766276755        -6.94170006       0.0418291277        -113.636898
                     0.0418291277        -113.636898
                      0.437112362         167.363209       0.0766276755        -6.94170006       0.0416173757        -85.9986483       0.0418291277        -113.636898
                     0.0418291277        -113.636898
                      0.437112362         167.363209       0.0418291277        -113.636898       0.0418291277        -113.636898       0.0416173757        -85.9986483
                     0.0766276755        -6.94170006
                      0.437112362         167.363209       0.0418291277        -113.636898       0.0418291277        -113.636898       0.0766276755        -6.94170006
                     0.0416173757        -85.9986483

2.13e+10       0.135350719        -122.941998        0.437953091         162.668819        0.437953091         162.668819        0.437953091         162.668819
                      0.437953091         162.668819
                      0.437953091         162.668819       0.0402216473        -89.1376049       0.0703490021        -10.1224682       0.0394493379        -121.191092
                     0.0394493379        -121.191092
                      0.437953091         162.668819       0.0703490021        -10.1224682       0.0402216473        -89.1376049       0.0394493379        -121.191092
                     0.0394493379        -121.191092
                      0.437953091         162.668819       0.0394493379        -121.191092       0.0394493379        -121.191092       0.0402216473        -89.1376049
                     0.0703490021        -10.1224682
                      0.437953091         162.668819       0.0394493379        -121.191092       0.0394493379        -121.191092       0.0703490021        -10.1224682
                     0.0402216473        -89.1376049

2.1325e+10       0.123781061        -125.513787        0.438698709         157.972971        0.438698709         157.972971        0.438698709         157.972971
                      0.438698709         157.972971
                      0.438698709         157.972971       0.0387175116         -92.204619       0.0641587032        -13.3344457       0.0370587886        -128.783372
                     0.0370587886        -128.783372
                      0.438698709         157.972971       0.0641587032        -13.3344457       0.0387175116         -92.204619       0.0370587886        -128.783372
                     0.0370587886        -128.783372
                      0.438698709         157.972971       0.0370587886        -128.783372       0.0370587886        -128.783372       0.0387175116         -92.204619
                     0.0641587032        -13.3344457
                      0.438698709         157.972971       0.0370587886        -128.783372       0.0370587886        -128.783372       0.0641587032        -13.3344457
                     0.0387175116         -92.204619

2.135e+10       0.112664304        -127.963441         0.43935324         153.276728         0.43935324         153.276728         0.43935324         153.276728
                       0.43935324         153.276728
                       0.43935324         153.276728       0.0371177003        -95.1873831       0.0580618383        -16.5992898       0.0346585396        -136.420712
                     0.0346585396        -136.420712
                       0.43935324         153.276728       0.0580618383        -16.5992898       0.0371177003        -95.1873831       0.0346585396        -136.420712
                     0.0346585396        -136.420712
                       0.43935324         153.276728       0.0346585396        -136.420712       0.0346585396        -136.420712       0.0371177003        -95.1873831
                     0.0580618383        -16.5992898
                       0.43935324         153.276728       0.0346585396        -136.420712       0.0346585396        -136.420712       0.0580618383        -16.5992898
                     0.0371177003        -95.1873831

2.1375e+10       0.102043124        -130.278154        0.439921523         148.581029        0.439921523         148.581029        0.439921523         148.581029
                      0.439921523         148.581029
                      0.439921523         148.581029        0.035434889        -98.0737033       0.0520616177        -19.9483798       0.0322497621        -144.112399
                     0.0322497621        -144.112399
                      0.439921523         148.581029       0.0520616177        -19.9483798        0.035434889        -98.0737033       0.0322497621        -144.112399
                     0.0322497621        -144.112399
                      0.439921523         148.581029       0.0322497621        -144.112399       0.0322497621        -144.112399        0.035434889        -98.0737033
                     0.0520616177        -19.9483798
                      0.439921523         148.581029       0.0322497621        -144.112399       0.0322497621        -144.112399       0.0520616177        -19.9483798
                      0.035434889        -98.0737033

2.14e+10      0.0919560198         -132.44555        0.440409069         143.886685        0.440409069         143.886685        0.440409069         143.886685
                      0.440409069         143.886685
                      0.440409069         143.886685       0.0336814323        -100.851308       0.0461597597        -23.4281456       0.0298337462        -151.870964
                     0.0298337462        -151.870964
                      0.440409069         143.886685       0.0461597597        -23.4281456       0.0336814323        -100.851308       0.0298337462        -151.870964
                     0.0298337462        -151.870964
                      0.440409069         143.886685       0.0298337462        -151.870964       0.0298337462        -151.870964       0.0336814323        -100.851308
                     0.0461597597        -23.4281456
                      0.440409069         143.886685       0.0298337462        -151.870964       0.0298337462        -151.870964       0.0461597597        -23.4281456
                     0.0336814323        -100.851308

2.1425e+10       0.082436643        -134.454809        0.440821888         139.194371        0.440821888         139.194371        0.440821888         139.194371
                      0.440821888         139.194371
                      0.440821888         139.194371       0.0318690725        -103.507508       0.0403571469        -27.1096954       0.0274119213        -159.713607
                     0.0274119213        -159.713607
                      0.440821888         139.194371       0.0403571469        -27.1096954       0.0318690725        -103.507508       0.0274119213        -159.713607
                     0.0274119213        -159.713607
