! Created Mon Jun 10 12:45:40 2024
# hz S ma R 50
! 5 Port Network Data from SP1.SP block
! freq  magS11  angS11  magS12  angS12  magS13  angS13  magS14  angS14  
!       magS15  angS15  
!       magS21  angS21  magS22  angS22  magS23  angS23  
!       magS24  angS24  magS25  angS25  
!       magS31  angS31  magS32  angS32  
!       magS33  angS33  magS34  angS34  magS35  angS35  
!       magS41  angS41  
!       magS42  angS42  magS43  angS43  magS44  angS44  magS45  angS45  
!       magS51  angS51  magS52  angS52  magS53  angS53  magS54  angS54  
!       magS55  angS55  
!     
2.1e+10       0.063514172        -147.621295        0.441179834          115.13399        0.441179834          115.13399        0.441179834          115.13399
                      0.441179834          115.13399
                      0.441179834          115.13399       0.0287282941        -138.138944       0.0208552152        -83.2923789       0.0165073852         157.429051
                     0.0165073852         157.429051
                      0.441179834          115.13399       0.0208552152        -83.2923789       0.0287282941        -138.138944       0.0165073852         157.429051
                     0.0165073852         157.429051
                      0.441179834          115.13399       0.0165073852         157.429051       0.0165073852         157.429051       0.0287282941        -138.138944
                     0.0208552152        -83.2923789
                      0.441179834          115.13399       0.0165073852         157.429051       0.0165073852         157.429051       0.0208552152        -83.2923789
                     0.0287282941        -138.138944

2.1025e+10      0.0581782755        -150.545577        0.441305068         110.344388        0.441305068         110.344388        0.441305068         110.344388
                      0.441305068         110.344388
                      0.441305068         110.344388       0.0272378424        -141.786494       0.0176845144        -101.725793       0.0141314445         147.754865
                     0.0141314445         147.754865
                      0.441305068         110.344388       0.0176845144        -101.725793       0.0272378424        -141.786494       0.0141314445         147.754865
                     0.0141314445         147.754865
                      0.441305068         110.344388       0.0141314445         147.754865       0.0141314445         147.754865       0.0272378424        -141.786494
                     0.0176845144        -101.725793
                      0.441305068         110.344388       0.0141314445         147.754865       0.0141314445         147.754865       0.0176845144        -101.725793
                     0.0272378424        -141.786494

2.105e+10      0.0533205306        -153.858116         0.44139914         105.556972         0.44139914         105.556972         0.44139914         105.556972
                       0.44139914         105.556972
                       0.44139914         105.556972       0.0256504216          -145.4925       0.0162864516        -124.585992       0.0117816769         137.183682
                     0.0117816769         137.183682
                       0.44139914         105.556972       0.0162864516        -124.585992       0.0256504216          -145.4925       0.0117816769         137.183682
                     0.0117816769         137.183682
                       0.44139914         105.556972       0.0117816769         137.183682       0.0117816769         137.183682       0.0256504216          -145.4925
                     0.0162864516        -124.585992
                       0.44139914         105.556972       0.0117816769         137.183682       0.0117816769         137.183682       0.0162864516        -124.585992
                     0.0256504216          -145.4925

2.1075e+10      0.0489366153         -157.69408         0.44146546         100.771494         0.44146546         100.771494         0.44146546         100.771494
                       0.44146546         100.771494
                       0.44146546         100.771494       0.0239668917        -149.291305       0.0170654724        -148.097278      0.00948113241         125.073113
                    0.00948113241         125.073113
                       0.44146546         100.771494       0.0170654724        -148.097278       0.0239668917        -149.291305      0.00948113241         125.073113
                    0.00948113241         125.073113
                       0.44146546         100.771494      0.00948113241         125.073113      0.00948113241         125.073113       0.0239668917        -149.291305
                     0.0170654724        -148.097278
                       0.44146546         100.771494      0.00948113241         125.073113      0.00948113241         125.073113       0.0170654724        -148.097278
                     0.0239668917        -149.291305

2.11e+10      0.0450341993        -162.208196        0.441506874         95.9876582        0.441506874         95.9876582        0.441506874         95.9876582
                      0.441506874         95.9876582
                      0.441506874         95.9876582       0.0221877016        -153.230403       0.0197405403        -167.789357      0.00728047318         110.059119
                    0.00728047318         110.059119
                      0.441506874         95.9876582       0.0197405403        -167.789357       0.0221877016        -153.230403      0.00728047318         110.059119
                    0.00728047318         110.059119
                      0.441506874         95.9876582      0.00728047318         110.059119      0.00728047318         110.059119       0.0221877016        -153.230403
                     0.0197405403        -167.789357
                      0.441506874         95.9876582      0.00728047318         110.059119      0.00728047318         110.059119       0.0197405403        -167.789357
                     0.0221877016        -153.230403

2.1125e+10      0.0416401355        -167.565976        0.441525601         91.2051299        0.441525601         91.2051299        0.441525601         91.2051299
                      0.441525601         91.2051299
                      0.441525601         91.2051299       0.0203131858        -157.377745       0.0236609005         177.351531      0.00530965747          89.001198
                    0.00530965747          89.001198
                      0.441525601         91.2051299       0.0236609005         177.351531       0.0203131858        -157.377745      0.00530965747          89.001198
                    0.00530965747          89.001198
                      0.441525601         91.2051299      0.00530965747          89.001198      0.00530965747          89.001198       0.0203131858        -157.377745
                     0.0236609005         177.351531
                      0.441525601         91.2051299      0.00530965747          89.001198      0.00530965747          89.001198       0.0236609005         177.351531
                     0.0203131858        -157.377745

2.115e+10      0.0388077337        -173.922457        0.441523228         86.4235493        0.441523228         86.4235493        0.441523228         86.4235493
                      0.441523228         86.4235493
                      0.441523228         86.4235493       0.0183442371        -161.834835       0.0283032936         166.188025      0.00393532308         55.7276735
                    0.00393532308         55.7276735
                      0.441523228         86.4235493       0.0283032936         166.188025       0.0183442371        -161.834835      0.00393532308         55.7276735
                    0.00393532308         55.7276735
                      0.441523228         86.4235493      0.00393532308         55.7276735      0.00393532308         55.7276735       0.0183442371        -161.834835
                     0.0283032936         166.188025
                      0.441523228         86.4235493      0.00393532308         55.7276735      0.00393532308         55.7276735       0.0283032936         166.188025
                     0.0183442371        -161.834835

2.1175e+10      0.0366215739         178.618522        0.441500687         81.6425429        0.441500687         81.6425429        0.441500687         81.6425429
                      0.441500687         81.6425429
                      0.441500687         81.6425429       0.0162834871        -166.761451       0.0333608821         157.466945      0.00386148407         11.4611786
                    0.00386148407         11.4611786
                      0.441500687         81.6425429       0.0333608821         157.466945       0.0162834871        -166.761451      0.00386148407         11.4611786
                    0.00386148407         11.4611786
                      0.441500687         81.6425429      0.00386148407         11.4611786      0.00386148407         11.4611786       0.0162834871        -166.761451
                     0.0333608821         157.466945
                      0.441500687         81.6425429      0.00386148407         11.4611786      0.00386148407         11.4611786       0.0333608821         157.466945
                     0.0162834871        -166.761451

2.12e+10      0.0351950114         170.065876        0.441458266         76.8617358        0.441458266         76.8617358        0.441458266         76.8617358
                      0.441458266         76.8617358
                      0.441458266         76.8617358       0.0141377851        -172.425424       0.0386665278         150.326331       0.0051456792        -23.2694677
                     0.0051456792        -23.2694677
                      0.441458266         76.8617358       0.0386665278         150.326331       0.0141377851        -172.425424       0.0051456792        -23.2694677
                     0.0051456792        -23.2694677
                      0.441458266         76.8617358       0.0051456792        -23.2694677       0.0051456792        -23.2694677       0.0141377851        -172.425424
                     0.0386665278         150.326331
                      0.441458266         76.8617358       0.0051456792        -23.2694677       0.0051456792        -23.2694677       0.0386665278         150.326331
                     0.0141377851        -172.425424

2.1225e+10      0.0346549203         160.604359        0.441395632         72.0807634        0.441395632         72.0807634        0.441395632         72.0807634
                      0.441395632         72.0807634
                      0.441395632         72.0807634       0.0119237108        -179.310688       0.0441274002         144.228628      0.00708452137         -45.181153
                    0.00708452137         -45.181153
                      0.441395632         72.0807634       0.0441274002         144.228628       0.0119237108        -179.310688      0.00708452137         -45.181153
                    0.00708452137         -45.181153
                      0.441395632         72.0807634      0.00708452137         -45.181153      0.00708452137         -45.181153       0.0119237108        -179.310688
                     0.0441274002         144.228628
                      0.441395632         72.0807634      0.00708452137         -45.181153      0.00708452137         -45.181153       0.0441274002         144.228628
                     0.0119237108        -179.310688

2.125e+10      0.0351130238         150.610612        0.441311819         67.2992828        0.441311819         67.2992828        0.441311819         67.2992828
                      0.441311819         67.2992828
                      0.441311819         67.2992828      0.00968122031         171.629004       0.0496891909         138.839825      0.00927585942         -60.586186
                    0.00927585942         -60.586186
                      0.441311819         67.2992828       0.0496891909         138.839825      0.00968122031         171.629004      0.00927585942         -60.586186
                    0.00927585942         -60.586186
                      0.441311819         67.2992828      0.00927585942         -60.586186      0.00927585942         -60.586186      0.00968122031         171.629004
                     0.0496891909         138.839825
                      0.441311819         67.2992828      0.00927585942         -60.586186      0.00927585942         -60.586186       0.0496891909         138.839825
                    0.00968122031         171.629004

2.1275e+10      0.0366342023         140.576603        0.441205301         62.5169834        0.441205301         62.5169834        0.441205301         62.5169834
                      0.441205301         62.5169834
                      0.441205301         62.5169834      0.00751260182         158.352575       0.0553179847         133.947223       0.0115764996        -72.8857904
                     0.0115764996        -72.8857904
                      0.441205301         62.5169834       0.0553179847         133.947223      0.00751260182         158.352575       0.0115764996        -72.8857904
                     0.0115764996        -72.8857904
                      0.441205301         62.5169834       0.0115764996        -72.8857904       0.0115764996        -72.8857904      0.00751260182         158.352575
                     0.0553179847         133.947223
                      0.441205301         62.5169834       0.0115764996        -72.8857904       0.0115764996        -72.8857904       0.0553179847         133.947223
                    0.00751260182         158.352575

2.13e+10      0.0392201732         130.963068        0.441074004         57.7335976        0.441074004         57.7335976        0.441074004         57.7335976
                      0.441074004         57.7335976
                      0.441074004         57.7335976      0.00569956931          136.58958       0.0609909302         129.411026       0.0139315038        -83.5534318
                     0.0139315038        -83.5534318
                      0.441074004         57.7335976       0.0609909302         129.411026      0.00569956931          136.58958       0.0139315038        -83.5534318
                     0.0139315038        -83.5534318
                      0.441074004         57.7335976       0.0139315038        -83.5534318       0.0139315038        -83.5534318      0.00569956931          136.58958
                     0.0609909302         129.411026
                      0.441074004         57.7335976       0.0139315038        -83.5534318       0.0139315038        -83.5534318       0.0609909302         129.411026
                    0.00569956931          136.58958

2.1325e+10      0.0428175582         122.076797        0.440915389         52.9489099        0.440915389         52.9489099        0.440915389         52.9489099
                      0.440915389         52.9489099
                      0.440915389         52.9489099      0.00493271589         102.364869       0.0666912543         125.136432       0.0163163278        -93.2763724
                     0.0163163278        -93.2763724
                      0.440915389         52.9489099       0.0666912543         125.136432      0.00493271589         102.364869       0.0163163278        -93.2763724
                     0.0163163278        -93.2763724
                      0.440915389         52.9489099       0.0163163278        -93.2763724       0.0163163278        -93.2763724      0.00493271589         102.364869
                     0.0666912543         125.136432
                      0.440915389         52.9489099       0.0163163278        -93.2763724       0.0163163278        -93.2763724       0.0666912543         125.136432
                    0.00493271589         102.364869

2.135e+10      0.0473415111         114.039533        0.440726472         48.1627663        0.440726472         48.1627663        0.440726472         48.1627663
                      0.440726472         48.1627663
                      0.440726472         48.1627663      0.00589720375         67.4376124       0.0724054541         121.057296       0.0187184771        -102.408198
                     0.0187184771        -102.408198
                      0.440726472         48.1627663       0.0724054541         121.057296      0.00589720375         67.4376124       0.0187184771        -102.408198
                     0.0187184771        -102.408198
                      0.440726472         48.1627663       0.0187184771        -102.408198       0.0187184771        -102.408198      0.00589720375         67.4376124
                     0.0724054541         121.057296
                      0.440726472         48.1627663       0.0187184771        -102.408198       0.0187184771        -102.408198       0.0724054541         121.057296
                    0.00589720375         67.4376124

2.1375e+10      0.0526988529         106.832191        0.440503929         43.3750819        0.440503929         43.3750819        0.440503929         43.3750819
                      0.440503929         43.3750819
                      0.440503929         43.3750819      0.00818418383         44.8056934       0.0781216634         117.126316        0.021130905        -111.146791
                      0.021130905        -111.146791
                      0.440503929         43.3750819       0.0781216634         117.126316      0.00818418383         44.8056934        0.021130905        -111.146791
                      0.021130905        -111.146791
                      0.440503929         43.3750819        0.021130905        -111.146791        0.021130905        -111.146791      0.00818418383         44.8056934
                     0.0781216634         117.126316
                      0.440503929         43.3750819        0.021130905        -111.146791        0.021130905        -111.146791       0.0781216634         117.126316
                    0.00818418383         44.8056934

2.14e+10      0.0588022521         100.359716        0.440244152         38.5858481        0.440244152         38.5858481        0.440244152         38.5858481
                      0.440244152         38.5858481
                      0.440244152         38.5858481       0.0111576276         31.0134192       0.0838286457          113.30896       0.0235493071        -119.610667
                     0.0235493071        -119.610667
                      0.440244152         38.5858481       0.0838286457          113.30896       0.0111576276         31.0134192       0.0235493071        -119.610667
                     0.0235493071        -119.610667
                      0.440244152         38.5858481       0.0235493071        -119.610667       0.0235493071        -119.610667       0.0111576276         31.0134192
                     0.0838286457          113.30896
                      0.440244152         38.5858481       0.0235493071        -119.610667       0.0235493071        -119.610667       0.0838286457          113.30896
                     0.0111576276         31.0134192

2.1425e+10      0.0655755144          94.501386        0.439943346         33.7951382        0.439943346         33.7951382        0.439943346         33.7951382
                      0.439943346         33.7951382
                      0.439943346         33.7951382       0.0145352787         21.6133013       0.0895151666         109.579605       0.0259708936        -127.874777
                     0.0259708936        -127.874777
                      0.439943346         33.7951382       0.0895151666         109.579605       0.0145352787         21.6133013       0.0259708936        -127.874777
                     0.0259708936        -127.874777
