! Created Mon Jun 10 12:53:56 2024
# hz S ma R 50
! 5 Port Network Data from SP1.SP block
! freq  magS11  angS11  magS12  angS12  magS13  angS13  magS14  angS14  
!       magS15  angS15  
!       magS21  angS21  magS22  angS22  magS23  angS23  
!       magS24  angS24  magS25  angS25  
!       magS31  angS31  magS32  angS32  
!       magS33  angS33  magS34  angS34  magS35  angS35  
!       magS41  angS41  
!       magS42  angS42  magS43  angS43  magS44  angS44  magS45  angS45  
!       magS51  angS51  magS52  angS52  magS53  angS53  magS54  angS54  
!       magS55  angS55  
!     
2.1e+10       0.387528577        -69.6890405         0.40447154        -120.870782         0.40447154        -120.870782         0.40447154        -120.870782
                       0.40447154        -120.870782
                       0.40447154        -120.870782       0.0367708946        -56.7024197        0.208647173         39.8335629       0.0906475288        -3.96359662
                     0.0906475288        -3.96359662
                       0.40447154        -120.870782        0.208647173         39.8335629       0.0367708946        -56.7024197       0.0906475288        -3.96359662
                     0.0906475288        -3.96359662
                       0.40447154        -120.870782       0.0906475288        -3.96359662       0.0906475288        -3.96359662       0.0367708946        -56.7024197
                      0.208647173         39.8335629
                       0.40447154        -120.870782       0.0906475288        -3.96359662       0.0906475288        -3.96359662        0.208647173         39.8335629
                     0.0367708946        -56.7024197

2.1025e+10        0.37628592        -73.0143715        0.406653743        -125.298698        0.406653743        -125.298698        0.406653743        -125.298698
                      0.406653743        -125.298698
                      0.406653743        -125.298698       0.0378203684        -56.9297035        0.203151004         36.8063256       0.0884912942        -11.1436656
                     0.0884912942        -11.1436656
                      0.406653743        -125.298698        0.203151004         36.8063256       0.0378203684        -56.9297035       0.0884912942        -11.1436656
                     0.0884912942        -11.1436656
                      0.406653743        -125.298698       0.0884912942        -11.1436656       0.0884912942        -11.1436656       0.0378203684        -56.9297035
                      0.203151004         36.8063256
                      0.406653743        -125.298698       0.0884912942        -11.1436656       0.0884912942        -11.1436656        0.203151004         36.8063256
                     0.0378203684        -56.9297035

2.105e+10       0.364581143        -76.3444418        0.408852462        -129.749779        0.408852462        -129.749779        0.408852462        -129.749779
                      0.408852462        -129.749779
                      0.408852462        -129.749779       0.0389405914        -57.6440207        0.197504257         33.7552908       0.0863394664        -18.3300123
                     0.0863394664        -18.3300123
                      0.408852462        -129.749779        0.197504257         33.7552908       0.0389405914        -57.6440207       0.0863394664        -18.3300123
                     0.0863394664        -18.3300123
                      0.408852462        -129.749779       0.0863394664        -18.3300123       0.0863394664        -18.3300123       0.0389405914        -57.6440207
                      0.197504257         33.7552908
                      0.408852462        -129.749779       0.0863394664        -18.3300123       0.0863394664        -18.3300123        0.197504257         33.7552908
                     0.0389405914        -57.6440207

2.1075e+10       0.352442539        -79.6772748        0.411054276        -134.223703        0.411054276        -134.223703        0.411054276        -134.223703
                      0.411054276        -134.223703
                      0.411054276        -134.223703       0.0400713656        -58.8049661        0.191708171         30.6859991       0.0841898481        -25.5240062
                     0.0841898481        -25.5240062
                      0.411054276        -134.223703        0.191708171         30.6859991       0.0400713656        -58.8049661       0.0841898481        -25.5240062
                     0.0841898481        -25.5240062
                      0.411054276        -134.223703       0.0841898481        -25.5240062       0.0841898481        -25.5240062       0.0400713656        -58.8049661
                      0.191708171         30.6859991
                      0.411054276        -134.223703       0.0841898481        -25.5240062       0.0841898481        -25.5240062        0.191708171         30.6859991
                     0.0400713656        -58.8049661

2.11e+10       0.339901672        -83.0105223        0.413245814        -138.719979        0.413245814        -138.719979        0.413245814        -138.719979
                      0.413245814        -138.719979
                      0.413245814        -138.719979       0.0411615683        -60.3622025        0.185767867         27.6042013       0.0820401962        -32.7268876
                     0.0820401962        -32.7268876
                      0.413245814        -138.719979        0.185767867         27.6042013       0.0411615683        -60.3622025       0.0820401962        -32.7268876
                     0.0820401962        -32.7268876
                      0.413245814        -138.719979       0.0820401962        -32.7268876       0.0820401962        -32.7268876       0.0411615683        -60.3622025
                      0.185767867         27.6042013
                      0.413245814        -138.719979       0.0820401962        -32.7268876       0.0820401962        -32.7268876        0.185767867         27.6042013
                     0.0411615683        -60.3622025

2.1125e+10       0.326993465        -86.3414388        0.415413908        -143.237942        0.415413908        -143.237942        0.415413908        -143.237942
                      0.415413908        -143.237942
                      0.415413908        -143.237942       0.0421690316        -62.2626238        0.179691986         24.5157883        0.079888284        -39.9397603
                      0.079888284        -39.9397603
                      0.415413908        -143.237942        0.179691986         24.5157883       0.0421690316        -62.2626238        0.079888284        -39.9397603
                      0.079888284        -39.9397603
                      0.415413908        -143.237942        0.079888284        -39.9397603        0.079888284        -39.9397603       0.0421690316        -62.2626238
                      0.179691986         24.5157883
                      0.415413908        -143.237942        0.079888284        -39.9397603        0.079888284        -39.9397603        0.179691986         24.5157883
                     0.0421690316        -62.2626238

2.115e+10       0.313756197        -89.6668491        0.417545747        -147.776764        0.417545747        -147.776764        0.417545747        -147.776764
                      0.417545747        -147.776764
                      0.417545747        -147.776764       0.0430598603        -64.4545579        0.173492269         21.4267244       0.0777319524        -47.1635894
                     0.0777319524        -47.1635894
                      0.417545747        -147.776764        0.173492269         21.4267244       0.0430598603        -64.4545579       0.0777319524        -47.1635894
                     0.0777319524        -47.1635894
                      0.417545747        -147.776764       0.0777319524        -47.1635894       0.0777319524        -47.1635894       0.0430598603        -64.4545579
                      0.173492269         21.4267244
                      0.417545747        -147.776764       0.0777319524        -47.1635894       0.0777319524        -47.1635894        0.173492269         21.4267244
                     0.0430598603        -64.4545579

2.1175e+10       0.300231444        -92.9831118        0.419629032        -152.335462        0.419629032        -152.335462        0.419629032        -152.335462
                      0.419629032        -152.335462
                      0.419629032        -152.335462       0.0438075589        -66.8899284        0.167183122         18.3429832       0.0755691576        -54.3992039
                     0.0755691576        -54.3992039
                      0.419629032        -152.335462        0.167183122         18.3429832       0.0438075589        -66.8899284       0.0755691576        -54.3992039
                     0.0755691576        -54.3992039
                      0.419629032        -152.335462       0.0755691576        -54.3992039       0.0755691576        -54.3992039       0.0438075589        -66.8899284
                      0.167183122         18.3429832
                      0.419629032        -152.335462       0.0755691576        -54.3992039       0.0755691576        -54.3992039        0.167183122         18.3429832
                     0.0438075589        -66.8899284

2.12e+10       0.286463957        -96.2860759         0.42165214        -156.912912         0.42165214        -156.912912         0.42165214        -156.912912
                       0.42165214        -156.912912
                       0.42165214        -156.912912       0.0443921425        -69.5250901        0.160781155         15.2704844       0.0733980119        -61.6473041
                     0.0733980119        -61.6473041
                       0.42165214        -156.912912        0.160781155         15.2704844       0.0443921425        -69.5250901       0.0733980119        -61.6473041
                     0.0733980119        -61.6473041
                       0.42165214        -156.912912       0.0733980119        -61.6473041       0.0733980119        -61.6473041       0.0443921425        -69.5250901
                      0.160781155         15.2704844
                       0.42165214        -156.912912       0.0733980119        -61.6473041       0.0733980119        -61.6473041        0.160781155         15.2704844
                     0.0443921425        -69.5250901

2.1225e+10        0.27250147        -99.5710321        0.423604283        -161.507857        0.423604283        -161.507857        0.423604283        -161.507857
                      0.423604283        -161.507857
                      0.423604283        -161.507857       0.0447993324        -72.3209308        0.154304707          12.215028       0.0712168217        -68.9084742
                     0.0712168217        -68.9084742
                      0.423604283        -161.507857        0.154304707          12.215028       0.0447993324        -72.3209308       0.0712168217        -68.9084742
                     0.0712168217        -68.9084742
                      0.423604283        -161.507857       0.0712168217        -68.9084742       0.0712168217        -68.9084742       0.0447993324        -72.3209308
                      0.154304707          12.215028
                      0.423604283        -161.507857       0.0712168217        -68.9084742       0.0712168217        -68.9084742        0.154304707          12.215028
                     0.0447993324        -72.3209308

2.125e+10       0.258394437        -102.832647        0.425475653        -166.118931        0.425475653        -166.118931        0.425475653        -166.118931
                      0.425475653        -166.118931
                      0.425475653        -166.118931       0.0450198293        -75.2425259        0.147773345         9.18222762       0.0690241118        -76.1831996
                     0.0690241118        -76.1831996
                      0.425475653        -166.118931        0.147773345         9.18222762       0.0450198293        -75.2425259       0.0690241118        -76.1831996
                     0.0690241118        -76.1831996
                      0.425475653        -166.118931       0.0690241118        -76.1831996       0.0690241118        -76.1831996       0.0450198293        -75.2425259
                      0.147773345         9.18222762
                      0.425475653        -166.118931       0.0690241118        -76.1831996       0.0690241118        -76.1831996        0.147773345         9.18222762
                     0.0450198293        -75.2425259

2.1275e+10       0.244195708        -106.064888        0.427257564        -170.744673        0.427257564        -170.744673        0.427257564        -170.744673
                      0.427257564        -170.744673
                      0.427257564        -170.744673       0.0450487047        -78.2586673        0.141207376         6.17743998       0.0668186481         -83.471889
                     0.0668186481         -83.471889
                      0.427257564        -170.744673        0.141207376         6.17743998       0.0450487047        -78.2586673       0.0668186481         -83.471889
                     0.0668186481         -83.471889
                      0.427257564        -170.744673       0.0668186481         -83.471889       0.0668186481         -83.471889       0.0450487047        -78.2586673
                      0.141207376         6.17743998
                      0.427257564        -170.744673       0.0668186481         -83.471889       0.0668186481         -83.471889        0.141207376         6.17743998
                     0.0450487047        -78.2586673

2.13e+10       0.229960145        -109.260923        0.428942565        -175.383546        0.428942565        -175.383546        0.428942565        -175.383546
                      0.428942565        -175.383546
                      0.428942565        -175.383546       0.0448848568        -81.3413057        0.134627331         3.20569199       0.0645994486        -90.7749021
                     0.0645994486        -90.7749021
                      0.428942565        -175.383546        0.134627331         3.20569199       0.0448848568        -81.3413057       0.0645994486        -90.7749021
                     0.0645994486        -90.7749021
                      0.428942565        -175.383546       0.0645994486        -90.7749021       0.0645994486        -90.7749021       0.0448848568        -81.3413057
                      0.134627331         3.20569199
                      0.428942565        -175.383546       0.0645994486        -90.7749021       0.0645994486        -90.7749021        0.134627331         3.20569199
                     0.0448848568        -81.3413057

2.1325e+10       0.215744199        -112.412997        0.430524536         179.966034        0.430524536         179.966034        0.430524536         179.966034
                      0.430524536         179.966034
                      0.430524536         179.966034        0.044530534        -84.4650173        0.128053477        0.271606398       0.0623657882         -98.092582
                     0.0623657882         -98.092582
                      0.430524536         179.966034        0.128053477        0.271606398        0.044530534        -84.4650173       0.0623657882         -98.092582
                     0.0623657882         -98.092582
                      0.430524536         179.966034       0.0623657882         -98.092582       0.0623657882         -98.092582        0.044530534        -84.4650173
                      0.128053477        0.271606398
                      0.430524536         179.966034       0.0623657882         -98.092582       0.0623657882         -98.092582        0.128053477        0.271606398
                      0.044530534        -84.4650173

2.135e+10       0.201605434        -115.512271        0.431998761         175.305682        0.431998761         175.305682        0.431998761         175.305682
                      0.431998761         175.305682
                      0.431998761         175.305682       0.0439909119        -87.6065253        0.121505338        -2.62067234       0.0601171976        -105.425293
                     0.0601171976        -105.425293
                      0.431998761         175.305682        0.121505338        -2.62067234       0.0439909119        -87.6065253       0.0601171976        -105.425293
                     0.0601171976        -105.425293
                      0.431998761         175.305682       0.0601171976        -105.425293       0.0601171976        -105.425293       0.0439909119        -87.6065253
                      0.121505338        -2.62067234
                      0.431998761         175.305682       0.0601171976        -105.425293       0.0601171976        -105.425293        0.121505338        -2.62067234
                     0.0439909119        -87.6065253

2.1375e+10        0.18760205        -118.548619        0.433361962         170.637016        0.433361962         170.637016        0.433361962         170.637016
                      0.433361962         170.637016
                      0.433361962         170.637016         0.04327369        -90.7442533        0.115001237         -5.4675491       0.0578534538        -112.773463
                     0.0578534538        -112.773463
                      0.433361962         170.637016        0.115001237         -5.4675491         0.04327369        -90.7442533       0.0578534538        -112.773463
                     0.0578534538        -112.773463
                      0.433361962         170.637016       0.0578534538        -112.773463       0.0578534538        -112.773463         0.04327369        -90.7442533
                      0.115001237         -5.4675491
                      0.433361962         170.637016       0.0578534538        -112.773463       0.0578534538        -112.773463        0.115001237         -5.4675491
                       0.04327369        -90.7442533

2.14e+10       0.173792364        -121.510367        0.434612324         165.961637        0.434612324         165.961637        0.434612324         165.961637
                      0.434612324         165.961637
                      0.434612324         165.961637       0.0423887366        -93.8579667        0.108557892        -8.26604218       0.0555745687        -120.137635
                     0.0555745687        -120.137635
                      0.434612324         165.961637        0.108557892        -8.26604218       0.0423887366        -93.8579667       0.0555745687        -120.137635
                     0.0555745687        -120.137635
                      0.434612324         165.961637       0.0555745687        -120.137635       0.0555745687        -120.137635       0.0423887366        -93.8579667
                      0.108557892        -8.26604218
                      0.434612324         165.961637       0.0555745687        -120.137635       0.0555745687        -120.137635        0.108557892        -8.26604218
                     0.0423887366        -93.8579667

2.1425e+10       0.160234329        -124.383948        0.435749459         161.281103        0.435749459         161.281103        0.435749459         161.281103
                      0.435749459         161.281103
                      0.435749459         161.281103       0.0413477082        -96.9283991        0.102190041        -11.0138356       0.0532807673        -127.518525
                     0.0532807673        -127.518525
                      0.435749459         161.281103        0.102190041        -11.0138356       0.0413477082        -96.9283991       0.0532807673        -127.518525
                     0.0532807673        -127.518525
