! TOUCHSTONE file generated by CST MICROWAVE STUDIO
! Date and time: Sat Jun  8 23:23:03 2024
! Project name: Final_26GHz_linear.cst
! Parameters = {tand=0.0037; Connector_spacing=15.33; Coplanar_gap=0.425; Distance_inner=4.78238; Distance_outer=14.3471; L=2.756; L_pad=5; Length_strip_inner=24.3248; Length_strip_outer=27.8328; Pad_via_diameter=2.1; Pad_via_x_centre=3.75; Pad_via_z_centre=2.8; Patch_spacing=5.76524; Via_diameter=0.4; Via_spacing=0.8; W=2.756; W_PCB=70; W_line_50=1.15; W_line_small=0.1; W_pad=6; c=2.99792e+08; er=3.66; extra_distance_z=30; f=2.6e+10; k=3.99; lambda_0=11.5305; t_copper=0.012; t_substrate=0.508; theta_inner=11.3385; theta_outer=31.0293; x_triangle_inner=0.563778; x_triangle_outer=0.49272; z_Line=23.85; z_triangle_inner=0.113048; z_triangle_outer=0.296399}
! Header version: 2024
! Port assignment regex: !\s*Touchstone port\s*([0-9]+)\s*=\s*(CST MWS port|CST DES external port|CST DES block port)\s*(.+)\s* \(\"(.*)\"\)(\s*mode\s*([0-9]+))?.*
! Touchstone port assignment:
! Touchstone port 1 = CST MWS port 1 ("")
! Touchstone port 2 = CST MWS port 2 ("")
! Touchstone port 3 = CST MWS port 3 ("")
! Touchstone port 4 = CST MWS port 4 ("")
# GHz S MA R 50
20                     0.8244455          99.244       0.01571822        136.1129      0.001491744        174.3181      0.001018754        141.0461
                      0.01183503        139.0413        0.7918382        39.93971       0.02006202       -83.68869      0.004340639        131.7602
                      0.00433924        131.7701       0.02006212       -83.68888        0.7918415        39.94678       0.01183414        139.0386
                     0.001018808        141.0478      0.001490801         174.299       0.01572085        136.1232        0.8246407        99.25706
20.025                 0.8218079        95.74571       0.01552101        131.6513      0.001834862        174.2855     0.0008910118        118.6785
                      0.01217234        137.9094         0.789297        36.74855        0.0200057       -88.11319      0.004439955         124.639
                     0.004438416        124.6495       0.02000581       -88.11335        0.7893011        36.75575       0.01217093        137.9084
                    0.0008910547        118.6811      0.001834033        174.2752       0.01552357        131.6602        0.8220016        95.75863
20.05                  0.8191847        92.25216       0.01528372        127.3438      0.002194473        171.7806       0.00082084        92.85045
                      0.01260587        136.3546        0.7867414        33.53044       0.01991605       -92.50391      0.004503385        117.5878
                      0.00450172        117.5991       0.01991616       -92.50406        0.7867463        33.53778       0.01260403        136.3556
                    0.0008208665        92.85389      0.002193798        171.7743       0.01528615        127.3514        0.8193771        92.26493
20.075                 0.8165792        88.75937        0.0150134        123.2119      0.002556843        167.8093     0.0008264583        65.48264
                      0.01311421        134.3227        0.7841528        30.28499       0.01979513       -96.83987      0.004529666        110.6184
                     0.004527887        110.6307       0.01979525       -96.84001        0.7841584        30.29248       0.01311204         134.326
                    0.0008264663        65.48631      0.002556338        167.8047       0.01501566        123.2181        0.8167702        88.77206
20.1                   0.8139891        85.26361       0.01471816        119.2752      0.002912971        162.9374     0.0009085558        39.75337
                      0.01367463        131.8018        0.7815158        27.01222        0.0196461       -101.1004       0.00451793        103.7445
                     0.004516055        103.7579       0.01964623       -101.1005         0.781522        27.01986       0.01367223        131.8073
                    0.0009085474        39.75653      0.002912642        162.9333       0.01472017          119.28         0.814179        85.27621
20.125                 0.8114079        81.76131       0.01440696         115.551      0.003256209         157.495      0.001050381        17.49052
                      0.01426472        128.8101        0.7788194         23.7125       0.01947321       -105.2655      0.004467735        96.98303
                     0.004465781        96.99778       0.01947336       -105.2656        0.7788261         23.7203        0.0142622        128.8176
                     0.001050361        17.49295      0.003256056        157.4908       0.01440867        115.5545        0.8115965        81.77384
20.15                  0.8088251         78.2491       0.01408942        112.0522      0.003581217        151.6851      0.001231759       -1.397444
                      0.01486347        125.3842        0.7760574        20.38651       0.01928176       -109.3161      0.004379084        90.35571
                     0.004377071        90.37206       0.01928192       -109.3163        0.7760645        20.39448       0.01486092        125.3936
                     0.001231732       -1.395665      0.003581236        151.6804        0.0140908        112.0546        0.8090125        78.26158
20.175                 0.8062268        74.72394       0.01377562        108.7863      0.003883497        145.6392       0.00143756       -17.72247
                       0.0154518          121.57        0.7732287        17.03515        0.0190781        -113.235       0.00425246        83.89063
                      0.00425041        83.90888       0.01907827       -113.2352        0.7732361        17.04331       0.01544928         121.581
                     0.001437529       -17.72116      0.003883679        145.6339       0.01377662        108.7878        0.8064133        74.73641
20.2                   0.8035969        71.18313       0.01347566        105.7529      0.004159172        139.4472      0.001658109       -32.24793
                      0.01601274        117.4158        0.7703378        13.65952       0.01886951        -117.007      0.004088859         77.6252
                     0.004086795        77.64573       0.01886969       -117.0072        0.7703454        13.66787       0.01601034        117.4283
                     0.001658075       -32.24696       0.00415951        139.4411       0.01347625        105.7536        0.8037826        71.19559
20.225                 0.8009184        67.62436       0.01319932        102.9421      0.004404902        133.1738      0.001887359       -45.52046
                       0.0165315         112.969        0.7673947        10.26081       0.01866415       -120.6206      0.003889841        71.61029
                     0.003887788        71.63356       0.01866434       -120.6208        0.7674023        10.26937       0.01652925        112.9826
                     0.001887323       -45.51975      0.004405385        133.1669       0.01319947        102.9424        0.8011032        67.63681
20.25                  0.7981734        64.04564       0.01295546        100.3328      0.004617852        126.8689      0.002121384       -57.90364
                       0.0169953        108.2737        0.7644144        6.840251       0.01847086       -124.0682      0.003657614        65.91676
                     0.003655602        65.94342       0.01847106       -124.0685        0.7644219        6.849039       0.01699326        108.2883
                     0.002121347       -57.90309      0.004618466        126.8609       0.01295517         100.333        0.7983574        64.05814
20.275                 0.7953447        60.44546       0.01275153        97.89252      0.004795686        120.5725      0.002357469       -69.63645
                      0.01739334          103.37         0.761417        3.399055       0.01829894       -127.3481      0.003395169        60.64592
                     0.003393233        60.67677       0.01829914       -127.3485        0.7614243        3.408087       0.01739155        103.3854
                      0.00235743       -69.63604      0.004796416        120.5636       0.01275081        97.89307        0.7955282        60.45799
20.3                    0.792417        56.82268       0.01259301        95.57772      0.004936596          114.32      0.002593584       -80.87769
                      0.01771661        98.29438        0.7584271     -0.06165097       0.01815783        -130.465       0.00310652        55.94653
                       0.0031047        55.98268       0.01815804       -130.4655        0.7584339     -0.05235626       0.01771509        98.31039
                     0.002593544       -80.87736      0.004937426          114.31       0.01259189        95.57902        0.7925997        56.83526
20.325                 0.7893767        53.17648       0.01248297        93.33649       0.00503933         108.144      0.002828093       -91.73465
                      0.01795778        93.07949        0.7554728       -3.540876       0.01805678       -133.4309      0.002797135        52.04338
                     0.002795481        52.08634       0.01805698       -133.4314         0.755479         -3.5313       0.01795655        93.09596
                     0.002828052       -91.73443      0.005040241        108.1328        0.0124815        93.33891        0.7895591        53.18913
20.35                  0.7862142        49.50647       0.01242182        91.11217      0.005103229        102.0769      0.003059581       -102.2813
                      0.01811116        87.75514        0.7525853       -7.037809       0.01800434       -136.2656      0.002474743        49.28488
                     0.002473321        49.33668       0.01800453       -136.2663        0.7525911       -7.027932       0.01811024        87.77196
                     0.003059539       -102.2812        0.0051042        102.0645       0.01242004        91.11602        0.7863959        49.51921
20.375                 0.7829227        45.81254       0.01240722        88.84807       0.00512828        96.15271      0.003286748       -112.5695
                      0.01817255        82.34885        0.7497983       -10.55186       0.01800795       -138.9966      0.002150892        48.21814
                     0.002149792        48.28135       0.01800813       -138.9974        0.7498032       -10.54166       0.01817194        82.36588
                     0.003286704       -112.5694      0.005129291        96.13894       0.01240521        88.85361        0.7831041        45.82538
20.4                   0.7795002         42.0949       0.01243432         86.4922      0.005115173        90.40847      0.003508352       -122.6359
                      0.01813922        76.88654        0.7471463       -14.08268       0.01807347       -141.6574      0.001843884         49.6799
                     0.001843235        49.75695       0.01807364       -141.6583        0.7471504       -14.07214       0.01813892        76.90367
                     0.003508306       -122.6359      0.005116199        90.39333       0.01243215        86.49955        0.7796813        42.10783
20.425                 0.7759494        38.35394       0.01249612        84.00118      0.005065373        84.88626      0.003723167       -132.5072
                      0.01800984        71.39331        0.7446644       -17.63018       0.01820478       -144.2861      0.001583587        54.77053
                     0.001583553        54.86081       0.01820493       -144.2871        0.7446677       -17.61928       0.01800985        71.41043
                     0.003723119       -132.5072      0.005066391        84.86967       0.01249387        84.01039        0.7761298          38.367
20.45                  0.7722772        34.59033       0.01258408        81.34275      0.004981209        79.63465      0.003929968       -142.2025
                      0.01778449        65.89423         0.742387       -21.19454       0.01840353       -146.9227       0.00141522        64.20358
                     0.001415948        64.29673       0.01840365       -146.9238        0.7423894       -21.18325       0.01778479        65.91124
                     0.003929918       -142.2025      0.004982192        79.61651       0.01258182         81.3538        0.7724574         34.6035
20.475                  0.768496        30.80483       0.01268866        78.49675      0.004865989        74.71045       0.00412752        -151.736
                      0.01746455         60.4152        0.7403471       -24.77617       0.01866899       -149.6061      0.001387969        76.54912
                     0.001389424        76.62354       0.01866909       -149.6073        0.7403485       -24.76448       0.01746513        60.43197
                     0.004127468        -151.736       0.00486691        74.69069       0.01268646        78.50949        0.7686757        30.81814
20.5                   0.7646228        26.99833       0.01279994        75.45465      0.004724137         70.1801      0.004314574       -161.1177
                      0.01705276        54.98392        0.7385751       -28.37572       0.01899814       -152.3719      0.001518695        87.84759
                     0.001520594        87.89008       0.01899821       -152.3731        0.7385757        -28.3636       0.01705359        55.00034
                      0.00431452       -161.1178      0.004724966        70.15869       0.01279787        75.46895        0.7648018         27.0118
20.525                 0.7606789         23.1718       0.01290819        72.21827       0.00456137        66.12044       0.00448988       -170.3552
                       0.0165532        49.63103        0.7370987       -31.99404       0.01938586       -155.2499      0.001776528        95.17518
                      0.00177855        95.19154       0.01938589       -155.2511        0.7370983       -31.98148       0.01655426        49.64696
                     0.004489825       -170.3554      0.004562079        66.09738       0.01290629        72.23389        0.7608575        23.18543
20.55                  0.7566905        19.32618       0.01300421        68.79795        0.0043849         62.6175      0.004652191       -179.4535
                      0.01597133         44.3915        0.7359414        -35.6321       0.01982522       -158.2628       0.00211502         98.4276
                     0.002116971        98.42884       0.01982521       -158.2641        0.7359399       -35.61909       0.01597258        44.40682
                     0.004652134       -179.4537      0.004385459        62.59287       0.01300251        68.81469        0.7568684        19.33998
20.575                 0.7526869        15.46242       0.01307972        65.21071      0.004203632        59.76181      0.004800283        171.5839
                      0.01531403        39.30639         0.735122         -39.291       0.02030793       -161.4262      0.002498163        98.66658
                     0.002499949        98.66034       0.02030788       -161.4275        0.7351197       -39.27751       0.01531543        39.32095
                     0.004800224        171.5837      0.004204014         59.7358       0.01307825        65.22833        0.7528642        15.47639
20.6                   0.7487013        11.58137       0.01312756        61.47856      0.004028304        57.63723      0.004932964        162.7553
                      0.01458971          34.425        0.7346553       -42.97182       0.02082469       -164.7481      0.002902788        96.88515
                     0.002904369        96.87563        0.0208246       -164.7494        0.7346521       -42.95786       0.01459123        34.43861
                     0.004932904         162.755      0.004028483        57.61023       0.01312635        61.49686         0.748878        11.59553
20.625                 0.7447691         7.68382       0.01314187         57.6272      0.003871408        56.30029      0.005049104        154.0599
                      0.01380853        29.80764        0.7345503       -46.67566       0.02136563         -168.23      0.003314053        93.76608
                     0.003315412        93.75542       0.02136551       -168.2313        0.7345463       -46.66121        0.0138101        29.82013
                     0.005049042        154.0596      0.003871369        56.27295       0.01314092        57.64597         0.744945        7.698179
20.65                  0.7409282        3.770396        0.0131182         53.6851      0.003746696        55.74907      0.005147644        145.4984
                      0.01298261        25.52908        0.7348112       -50.40348       0.02192066       -171.8682      0.003721841        89.74718
                     0.003722969        89.73646        0.0219205       -171.8695        0.7348063       -50.38854       0.01298418        25.54021
                     0.005147581         145.498      0.003746433         55.7223        0.0131175        53.70413        0.7411032         3.78496
20.675                 0.7372171      -0.1584118       0.01305352         49.6828      0.003668003        55.88791      0.005227631        137.0725
                      0.01212646        21.68249        0.7354366        -54.1561       0.02247975       -175.6544      0.004118723        85.10929
                     0.004119619        85.09911       0.02247956       -175.6557         0.735431       -54.14066       0.01212797        21.69202
                     0.005227566        137.0721       0.00366753        55.86281       0.01305307        49.70193        0.7373913      -0.1436345
20.7                   0.7336754        -4.10228       0.01294635        45.65263      0.003647346        56.50571      0.005288232        128.7851
                       0.0112576        18.38357        0.7364201       -57.93411       0.02303321       -179.5773      0.004498903        80.03689
                     0.004499568        80.02756       0.02303298       -179.5785        0.7364138       -57.91815       0.01125896        18.39124
                     0.005288166        128.7847      0.003646696        56.48341       0.01294612         45.6717        0.7338486       -4.087282
20.725                 0.7303419        -8.06106        0.0127967        41.62856       0.00369269        57.29195      0.005328761        120.6405
                      0.01039728        15.77303        0.7377508       -61.73779       0.02357186        176.3769      0.004857658        74.65504
                     0.004858095        74.64669       0.02357159        176.3757        0.7377437       -61.72134       0.01039842         15.7786
                     0.005328694        120.6401      0.003691916        57.27329       0.01279667        41.64741        0.7305141       -8.045836
20.75                  0.7272546       -12.03477       0.01260613        37.64614      0.003806284        57.89827      0.005348706        112.6443
                     0.009571537        14.01388        0.7394127       -65.56716       0.02408718        172.2233       0.00519105        69.05131
                     0.005191262        69.04405       0.02408688        172.2222        0.7394051        -65.5502      0.009572356         14.0172
                     0.005348639        112.6438      0.003805453        57.88354       0.01260627        37.66465        0.7274258       -12.01932
20.775                 0.7244496       -16.02361        0.0123778        33.74249      0.003984422        58.02027       0.00534775        104.8035
                     0.008812045        13.27556        0.7413863       -69.42183       0.02457144        167.9778       0.00549576        63.28929
                     0.005495755        63.28317       0.02457112        167.9767         0.741378       -69.40443      0.008812449         13.2767
