! Created Mon Jun 10 12:47:06 2024
# hz S ma R 50
! 5 Port Network Data from SP1.SP block
! freq  magS11  angS11  magS12  angS12  magS13  angS13  magS14  angS14  
!       magS15  angS15  
!       magS21  angS21  magS22  angS22  magS23  angS23  
!       magS24  angS24  magS25  angS25  
!       magS31  angS31  magS32  angS32  
!       magS33  angS33  magS34  angS34  magS35  angS35  
!       magS41  angS41  
!       magS42  angS42  magS43  angS43  magS44  angS44  magS45  angS45  
!       magS51  angS51  magS52  angS52  magS53  angS53  magS54  angS54  
!       magS55  angS55  
!     
2.1e+10        0.29002826        -87.2087399        0.424893256        -142.253552        0.424893256        -142.253552        0.424893256        -142.253552
                      0.424893256        -142.253552
                      0.424893256        -142.253552       0.0472084675        -51.3964481         0.14796053         27.2654975       0.0675016087         -33.581644
                     0.0675016087         -33.581644
                      0.424893256        -142.253552         0.14796053         27.2654975       0.0472084675        -51.3964481       0.0675016087         -33.581644
                     0.0675016087         -33.581644
                      0.424893256        -142.253552       0.0675016087         -33.581644       0.0675016087         -33.581644       0.0472084675        -51.3964481
                       0.14796053         27.2654975
                      0.424893256        -142.253552       0.0675016087         -33.581644       0.0675016087         -33.581644         0.14796053         27.2654975
                     0.0472084675        -51.3964481

2.1025e+10       0.276980244        -90.4910933        0.426733115        -146.848243        0.426733115        -146.848243        0.426733115        -146.848243
                      0.426733115        -146.848243
                      0.426733115        -146.848243       0.0475476156        -54.3734234        0.141479668         24.0529675         0.06524241        -40.9130476
                       0.06524241        -40.9130476
                      0.426733115        -146.848243        0.141479668         24.0529675       0.0475476156        -54.3734234         0.06524241        -40.9130476
                       0.06524241        -40.9130476
                      0.426733115        -146.848243         0.06524241        -40.9130476         0.06524241        -40.9130476       0.0475476156        -54.3734234
                      0.141479668         24.0529675
                      0.426733115        -146.848243         0.06524241        -40.9130476         0.06524241        -40.9130476        0.141479668         24.0529675
                     0.0475476156        -54.3734234

2.105e+10        0.26376007        -93.7527608         0.42850859        -151.459215         0.42850859        -151.459215         0.42850859        -151.459215
                       0.42850859        -151.459215
                       0.42850859        -151.459215       0.0477181414        -57.4595432        0.134937175         20.8374726       0.0629708545        -48.2599636
                     0.0629708545        -48.2599636
                       0.42850859        -151.459215        0.134937175         20.8374726       0.0477181414        -57.4595432       0.0629708545        -48.2599636
                     0.0629708545        -48.2599636
                       0.42850859        -151.459215       0.0629708545        -48.2599636       0.0629708545        -48.2599636       0.0477181414        -57.4595432
                      0.134937175         20.8374726
                       0.42850859        -151.459215       0.0629708545        -48.2599636       0.0629708545        -48.2599636        0.134937175         20.8374726
                     0.0477181414        -57.4595432

2.1075e+10       0.250418399        -96.9888377        0.430210563        -156.085199        0.430210563        -156.085199        0.430210563        -156.085199
                      0.430210563        -156.085199
                      0.430210563        -156.085199       0.0477139501        -60.6317229        0.128348866         17.6223454       0.0606861101        -55.6232811
                     0.0606861101        -55.6232811
                      0.430210563        -156.085199        0.128348866         17.6223454       0.0477139501        -60.6317229       0.0606861101        -55.6232811
                     0.0606861101        -55.6232811
                      0.430210563        -156.085199       0.0606861101        -55.6232811       0.0606861101        -55.6232811       0.0477139501        -60.6317229
                      0.128348866         17.6223454
                      0.430210563        -156.085199       0.0606861101        -55.6232811       0.0606861101        -55.6232811        0.128348866         17.6223454
                     0.0477139501        -60.6317229

2.11e+10       0.237007892        -100.193888        0.431831013        -160.724845        0.431831013        -160.724845        0.431831013        -160.724845
                      0.431831013        -160.724845
                      0.431831013        -160.724845       0.0475321618        -63.8686914        0.121731402         14.4103909       0.0583875475        -63.0039355
                     0.0583875475        -63.0039355
                      0.431831013        -160.724845        0.121731402         14.4103909       0.0475321618        -63.8686914       0.0583875475        -63.0039355
                     0.0583875475        -63.0039355
                      0.431831013        -160.724845       0.0583875475        -63.0039355       0.0583875475        -63.0039355       0.0475321618        -63.8686914
                      0.121731402         14.4103909
                      0.431831013        -160.724845       0.0583875475        -63.0039355       0.0583875475        -63.0039355        0.121731402         14.4103909
                     0.0475321618        -63.8686914

2.1125e+10       0.223582824        -103.361905        0.433363122        -165.376734        0.433363122        -165.376734        0.433363122        -165.376734
                      0.433363122        -165.376734
                      0.433363122        -165.376734       0.0471728202        -67.1508139        0.115101833         11.2037242        0.056074748        -70.4029561
                      0.056074748        -70.4029561
                      0.433363122        -165.376734        0.115101833         11.2037242       0.0471728202        -67.1508139        0.056074748        -70.4029561
                      0.056074748        -70.4029561
                      0.433363122        -165.376734        0.056074748        -70.4029561        0.056074748        -70.4029561       0.0471728202        -67.1508139
                      0.115101833         11.2037242
                      0.433363122        -165.376734        0.056074748        -70.4029561        0.056074748        -70.4029561        0.115101833         11.2037242
                     0.0471728202        -67.1508139

2.115e+10       0.210198637        -106.486263        0.434801358        -170.039409        0.434801358        -170.039409        0.434801358        -170.039409
                      0.434801358        -170.039409
                      0.434801358        -170.039409       0.0466386078        -70.4599164        0.108477146          8.0035789       0.0537475074        -77.8215257
                     0.0537475074        -77.8215257
                      0.434801358        -170.039409        0.108477146          8.0035789       0.0466386078        -70.4599164       0.0537475074        -77.8215257
                     0.0537475074        -77.8215257
                      0.434801358        -170.039409       0.0537475074        -77.8215257       0.0537475074        -77.8215257       0.0466386078        -70.4599164
                      0.108477146          8.0035789
                      0.434801358        -170.039409       0.0537475074        -77.8215257       0.0537475074        -77.8215257        0.108477146          8.0035789
                     0.0466386078        -70.4599164

2.1175e+10       0.196911465        -109.559668        0.436141509        -174.711389        0.436141509        -174.711389        0.436141509        -174.711389
                      0.436141509        -174.711389
                      0.436141509        -174.711389       0.0459345349        -73.7790662        0.101873825         4.81007637       0.0514058287         -85.261054
                     0.0514058287         -85.261054
                      0.436141509        -174.711389        0.101873825         4.81007637       0.0459345349        -73.7790662       0.0514058287         -85.261054
                     0.0514058287         -85.261054
                      0.436141509        -174.711389       0.0514058287         -85.261054       0.0514058287         -85.261054       0.0459345349        -73.7790662
                      0.101873825         4.81007637
                      0.436141509        -174.711389       0.0514058287         -85.261054       0.0514058287         -85.261054        0.101873825         4.81007637
                     0.0459345349        -73.7790662

2.12e+10       0.183777624        -112.574105        0.437380735        -179.391197        0.437380735        -179.391197        0.437380735        -179.391197
                      0.437380735        -179.391197
                      0.437380735        -179.391197       0.0450676708        -77.0924555       0.0953074588         1.62193904       0.0490499195        -92.7232692
                     0.0490499195        -92.7232692
                      0.437380735        -179.391197       0.0953074588         1.62193904       0.0450676708        -77.0924555       0.0490499195        -92.7232692
                     0.0490499195        -92.7232692
                      0.437380735        -179.391197       0.0490499195        -92.7232692       0.0490499195        -92.7232692       0.0450676708        -77.0924555
                     0.0953074588         1.62193904
                      0.437380735        -179.391197       0.0490499195        -92.7232692       0.0490499195        -92.7232692       0.0953074588         1.62193904
                     0.0450676708        -77.0924555

2.1225e+10       0.170853082        -115.520783        0.438517552         175.922622        0.438517552         175.922622        0.438517552         175.922622
                      0.438517552         175.922622
                      0.438517552         175.922622       0.0440468329        -80.3852273       0.0887923731        -1.56387637       0.0466801773        -100.210334
                     0.0466801773        -100.210334
                      0.438517552         175.922622       0.0887923731        -1.56387637       0.0440468329        -80.3852273       0.0466801773        -100.210334
                     0.0466801773        -100.210334
                      0.438517552         175.922622       0.0466801773        -100.210334       0.0466801773        -100.210334       0.0440468329        -80.3852273
                     0.0887923731        -1.56387637
                      0.438517552         175.922622       0.0466801773        -100.210334       0.0466801773        -100.210334       0.0887923731        -1.56387637
                     0.0440468329        -80.3852273

2.125e+10       0.158192937        -118.390083        0.439551788         171.231476        0.439551788         171.231476        0.439551788         171.231476
                      0.439551788         171.231476
                      0.439551788         171.231476        0.042882259        -83.6433056       0.0823413201        -4.75266511       0.0442971724        -107.724995
                     0.0442971724        -107.724995
                      0.439551788         171.231476       0.0823413201        -4.75266511        0.042882259        -83.6433056       0.0442971724        -107.724995
                     0.0442971724        -107.724995
                      0.439551788         171.231476       0.0442971724        -107.724995       0.0442971724        -107.724995        0.042882259        -83.6433056
                     0.0823413201        -4.75266511
                      0.439551788         171.231476       0.0442971724        -107.724995       0.0442971724        -107.724995       0.0823413201        -4.75266511
                      0.042882259        -83.6433056

2.1275e+10       0.145850852        -121.171535         0.44048455         166.536709         0.44048455         166.536709         0.44048455         166.536709
                       0.44048455         166.536709
                       0.44048455         166.536709       0.0415853317        -86.8533296       0.0759652471        -7.95264374       0.0419016371        -115.270774
                     0.0419016371        -115.270774
                       0.44048455         166.536709       0.0759652471        -7.95264374       0.0415853317        -86.8533296       0.0419016371        -115.270774
                     0.0419016371        -115.270774
                       0.44048455         166.536709       0.0419016371        -115.270774       0.0419016371        -115.270774       0.0415853317        -86.8533296
                     0.0759652471        -7.95264374
                       0.44048455         166.536709       0.0419016371        -115.270774       0.0419016371        -115.270774       0.0759652471        -7.95264374
                     0.0415853317        -86.8533296

2.13e+10       0.133878531        -123.853823        0.441318117         161.839581        0.441318117         161.839581        0.441318117         161.839581
                      0.441318117         161.839581
                      0.441318117         161.839581       0.0401682381        -90.0024948       0.0696731323        -11.1759101       0.0394944466         -122.85223
                     0.0394944466         -122.85223
                      0.441318117         161.839581       0.0696731323        -11.1759101       0.0401682381        -90.0024948       0.0394944466         -122.85223
                     0.0394944466         -122.85223
                      0.441318117         161.839581       0.0394944466         -122.85223       0.0394944466         -122.85223       0.0401682381        -90.0024948
                     0.0696731323        -11.1759101
                      0.441318117         161.839581       0.0394944466         -122.85223       0.0394944466         -122.85223       0.0696731323        -11.1759101
                     0.0401682381        -90.0024948

2.1325e+10       0.122325159        -126.424867        0.442055846         157.141254        0.442055846         157.141254        0.442055846         157.141254
                      0.442055846         157.141254
                      0.442055846         157.141254        0.038643673        -93.0784596       0.0634719283        -14.4398794       0.0370766079        -130.475309
                     0.0370766079        -130.475309
                      0.442055846         157.141254       0.0634719283        -14.4398794        0.038643673        -93.0784596       0.0370766079        -130.475309
                     0.0370766079        -130.475309
                      0.442055846         157.141254       0.0370766079        -130.475309       0.0370766079        -130.475309        0.038643673        -93.0784596
                     0.0634719283        -14.4398794
                      0.442055846         157.141254       0.0370766079        -130.475309       0.0370766079        -130.475309       0.0634719283        -14.4398794
                      0.038643673        -93.0784596

2.135e+10       0.111236857        -128.872021         0.44270203         152.442774         0.44270203         152.442774         0.44270203         152.442774
                       0.44270203         152.442774
                       0.44270203         152.442774       0.0370245121        -96.0691922        0.057366623         -17.769528       0.0346492497        -138.147848
                     0.0346492497        -138.147848
                       0.44270203         152.442774        0.057366623         -17.769528       0.0370245121        -96.0691922       0.0346492497        -138.147848
                     0.0346492497        -138.147848
                       0.44270203         152.442774       0.0346492497        -138.147848       0.0346492497        -138.147848       0.0370245121        -96.0691922
                      0.057366623         -17.769528
                       0.44270203         152.442774       0.0346492497        -138.147848       0.0346492497        -138.147848        0.057366623         -17.769528
                     0.0370245121        -96.0691922

2.1375e+10       0.100656081        -131.182489        0.443261772         147.745065        0.443261772         147.745065        0.443261772         147.745065
                      0.443261772         147.745065
                      0.443261772         147.745065       0.0353235359        -98.9628447       0.0513604681        -21.2010657       0.0322136243        -145.880283
                     0.0322136243        -145.880283
                      0.443261772         147.745065       0.0513604681        -21.2010657       0.0353235359        -98.9628447       0.0322136243        -145.880283
                     0.0322136243        -145.880283
                      0.443261772         147.745065       0.0322136243        -145.880283       0.0322136243        -145.880283       0.0353235359        -98.9628447
                     0.0513604681        -21.2010657
                      0.443261772         147.745065       0.0322136243        -145.880283       0.0322136243        -145.880283       0.0513604681        -21.2010657
                     0.0353235359        -98.9628447

2.14e+10      0.0906210173        -133.344054        0.443740811         143.048918        0.443740811         143.048918        0.443740811         143.048918
                      0.443740811         143.048918
                      0.443740811         143.048918       0.0335531103          -101.7475       0.0454554319        -24.7882487       0.0297711174        -153.686718
                     0.0297711174        -153.686718
                      0.443740811         143.048918       0.0454554319        -24.7882487       0.0335531103          -101.7475       0.0297711174        -153.686718
                     0.0297711174        -153.686718
                      0.443740811         143.048918       0.0297711174        -153.686718       0.0297711174        -153.686718       0.0335531103          -101.7475
                     0.0454554319        -24.7882487
                      0.443740811         143.048918       0.0297711174        -153.686718       0.0297711174        -153.686718       0.0454554319        -24.7882487
                     0.0335531103          -101.7475

2.1425e+10      0.0811648352        -135.346348        0.444145382         138.354985        0.444145382         138.354985        0.444145382         138.354985
                      0.444145382         138.354985
                      0.444145382         138.354985       0.0317249619        -104.410929       0.0396530486        -28.6138625       0.0273232838        -161.586543
                     0.0273232838        -161.586543
                      0.444145382         138.354985       0.0396530486        -28.6138625       0.0317249619        -104.410929       0.0273232838        -161.586543
                     0.0273232838        -161.586543
