!Keysight Technologies,N5225A,MY55451607,A.10.47.03
!Date: Friday, May 31, 2024 11:47:46
!Correction: S11(Full 2 Port(1,2)) 
!S21(Full 2 Port(1,2)) 
!S12(Full 2 Port(1,2)) 
!S22(Full 2 Port(1,2)) 
!S2P File: Measurements: S11, S21, S12, S22:
# Hz S  RI   R 50
25000000000 0.16084771 -0.30173758 -0.37603584 -0.40349534 -0.36873195 -0.40202621 0.22021177 -0.19119228
25018750000 0.15747076 -0.31095991 -0.38582781 -0.39091456 -0.38065383 -0.39287445 0.21971813 -0.20526879
25037500000 0.15287571 -0.31874877 -0.39481589 -0.38282263 -0.3896476 -0.37938207 0.22103277 -0.21762836
25056250000 0.14570653 -0.32585919 -0.40466055 -0.37102675 -0.39301297 -0.37147751 0.22163516 -0.22669427
25075000000 0.13616551 -0.33448109 -0.41166133 -0.36357799 -0.40524691 -0.36842877 0.2197393 -0.23504604
25093750000 0.12765469 -0.34612188 -0.42497468 -0.35203966 -0.41897854 -0.35478562 0.21611926 -0.24474567
25112500000 0.12148672 -0.35839441 -0.42970484 -0.33714885 -0.42498305 -0.34434631 0.21250315 -0.2565425
25131250000 0.11853474 -0.36742333 -0.4372516 -0.33167729 -0.43467867 -0.3339555 0.2098566 -0.26833403
25150000000 0.11532401 -0.372832 -0.45048523 -0.31983984 -0.43750864 -0.32365516 0.20806926 -0.27942419
25168750000 0.108099 -0.37613717 -0.45576853 -0.30579805 -0.44794703 -0.31907636 0.20475851 -0.28847459
25187500000 0.096058719 -0.38119093 -0.46151194 -0.29750261 -0.45899513 -0.3026126 0.20057148 -0.296233
25206250000 0.082741305 -0.39033404 -0.47067505 -0.28422761 -0.46225229 -0.29152605 0.19581152 -0.30357495
25225000000 0.072441898 -0.40241626 -0.47376463 -0.27172297 -0.47208282 -0.27972934 0.18976693 -0.31012958
25243750000 0.065548159 -0.41327548 -0.48372638 -0.26371673 -0.47527856 -0.26812163 0.18201584 -0.31698653
25262500000 0.061587095 -0.41992477 -0.49306983 -0.24587007 -0.48669493 -0.26158652 0.1735269 -0.32588339
25281250000 0.054544549 -0.42437512 -0.49350744 -0.23498049 -0.49706024 -0.24346909 0.1651516 -0.33742535
25300000000 0.044603672 -0.42733356 -0.50157189 -0.22651926 -0.49880442 -0.23123175 0.15914798 -0.34881926
25318750000 0.033537894 -0.43175951 -0.50703609 -0.2132944 -0.50631279 -0.22060212 0.15409538 -0.35810998
25337500000 0.023128795 -0.43788868 -0.51323861 -0.20134431 -0.51075989 -0.2090973 0.1482089 -0.36460316
25356250000 0.013931657 -0.44390351 -0.51709777 -0.185527 -0.51978666 -0.19958633 0.14033562 -0.3712528
25375000000 0.003993826 -0.44834104 -0.5192982 -0.17614099 -0.52748781 -0.18316129 0.13116759 -0.3788743
25393750000 -0.0057535633 -0.45217553 -0.52814996 -0.16465011 -0.52950937 -0.16875312 0.12367672 -0.38622853
25412500000 -0.015532973 -0.45666879 -0.53280538 -0.1491283 -0.53231066 -0.15753949 0.11644243 -0.39194348
25431250000 -0.0234005 -0.46082658 -0.53514445 -0.13679342 -0.53761286 -0.14772813 0.1070344 -0.3957088
25450000000 -0.029655999 -0.46325848 -0.53875661 -0.12344165 -0.54669714 -0.13348939 0.095044889 -0.40008673
25468750000 -0.037703674 -0.46234462 -0.539828 -0.11057912 -0.5495311 -0.1140803 0.082217343 -0.40759504
25487500000 -0.048987523 -0.45880336 -0.54489374 -0.10088602 -0.54844785 -0.10165881 0.071985498 -0.41539121
25506250000 -0.062853575 -0.45705518 -0.55178863 -0.083951786 -0.5539692 -0.09090738 0.064832732 -0.42068353
25525000000 -0.077862985 -0.45917138 -0.54891139 -0.068396211 -0.5597111 -0.074765392 0.056471635 -0.42291096
25543750000 -0.089711189 -0.46232662 -0.55049109 -0.059087314 -0.56020337 -0.059738439 0.044638332 -0.42381874
25562500000 -0.097262025 -0.46478409 -0.55449599 -0.04384594 -0.56300658 -0.048179317 0.031321328 -0.42695746
25581250000 -0.1034232 -0.46461895 -0.55632424 -0.028685272 -0.56567639 -0.032925773 0.020328293 -0.43199125
25600000000 -0.11136714 -0.46189636 -0.55834419 -0.013678539 -0.56517005 -0.020218244 0.012695236 -0.43486351
25618750000 -0.12217961 -0.45831981 -0.55837405 -0.0016592206 -0.56845999 -0.0072769672 0.0051746527 -0.43344823
25637500000 -0.13414177 -0.45565358 -0.56064624 0.010908105 -0.56969029 0.0095687266 -0.0062495559 -0.42941043
25656250000 -0.14586814 -0.45405835 -0.55945677 0.025811324 -0.56858224 0.024753934 -0.022066476 -0.42733485
25675000000 -0.1565063 -0.45243192 -0.55930698 0.039277013 -0.56699699 0.039759964 -0.03810738 -0.42897895
25693750000 -0.16621995 -0.45118016 -0.56002533 0.056944706 -0.56614804 0.053629637 -0.050944578 -0.43257189
25712500000 -0.17566511 -0.44989395 -0.55712277 0.071565226 -0.56681502 0.069687381 -0.061324958 -0.43483764
25731250000 -0.18468586 -0.44789761 -0.55841702 0.081849732 -0.56555194 0.086124673 -0.072032824 -0.43410257
25750000000 -0.19262415 -0.4449001 -0.56044227 0.097022831 -0.56531495 0.10098621 -0.083655261 -0.43256846
25768750000 -0.20097663 -0.44117522 -0.55622566 0.11211567 -0.56392562 0.11566664 -0.094802551 -0.43198445
25787500000 -0.21011944 -0.43642768 -0.55423993 0.12420847 -0.56318021 0.12840189 -0.10415638 -0.43111557
25806250000 -0.21921439 -0.43150666 -0.55262274 0.14061634 -0.56273401 0.14418334 -0.11144912 -0.42748541
25825000000 -0.22864772 -0.42639625 -0.54863113 0.15414079 -0.55779779 0.16005988 -0.12000868 -0.42161837
25843750000 -0.23743951 -0.42066959 -0.54801333 0.16795415 -0.55410582 0.17338413 -0.13196804 -0.41520575
25862500000 -0.24634078 -0.41523421 -0.54322475 0.18383102 -0.55113006 0.18823083 -0.14493211 -0.41018832
25881250000 -0.25500077 -0.40991634 -0.53797162 0.19559972 -0.546772 0.20334211 -0.15648167 -0.40679348
25900000000 -0.26213744 -0.4045659 -0.5350669 0.20996578 -0.54198611 0.21766864 -0.16528854 -0.40246114
25918750000 -0.26904088 -0.39815342 -0.52999997 0.22486287 -0.53694081 0.23176633 -0.17349842 -0.395971
25937500000 -0.27626964 -0.38981447 -0.5255639 0.23893476 -0.53189027 0.24665071 -0.18287054 -0.38760552
25956250000 -0.28527617 -0.3810626 -0.52043432 0.25303891 -0.5259738 0.26164234 -0.19370538 -0.37986284
25975000000 -0.29534531 -0.37449455 -0.51490849 0.26660118 -0.52019823 0.27616534 -0.20411173 -0.37384555
25993750000 -0.30365789 -0.37091148 -0.50777799 0.28059927 -0.51462686 0.29066706 -0.21288142 -0.36782783
26012500000 -0.30863258 -0.36770147 -0.50022441 0.29334795 -0.50829083 0.3040069 -0.21967596 -0.35974291
26031250000 -0.30992669 -0.36182445 -0.49502698 0.30719423 -0.50239271 0.31620517 -0.22635083 -0.34921286
26050000000 -0.31160861 -0.35274276 -0.48858494 0.32259509 -0.49575424 0.32931361 -0.23507477 -0.33743048
26068750000 -0.31684631 -0.34279627 -0.48090002 0.33536413 -0.48700017 0.34266165 -0.24490155 -0.32639962
26087500000 -0.32376188 -0.33448008 -0.47485283 0.34776789 -0.47789526 0.35582289 -0.2538844 -0.31766319
26106250000 -0.32968697 -0.3285239 -0.46613732 0.36091477 -0.46847209 0.36908564 -0.26083902 -0.31047004
26125000000 -0.33229831 -0.32235366 -0.45723879 0.37343043 -0.45984963 0.38230434 -0.26498359 -0.30272368
26143750000 -0.33303493 -0.31471613 -0.44816622 0.38759404 -0.4503848 0.39573258 -0.26840892 -0.29266515
26162500000 -0.33421278 -0.30555502 -0.4391638 0.40073282 -0.44056001 0.4081904 -0.2726776 -0.28090027
26181250000 -0.33632717 -0.29624721 -0.43111414 0.41393048 -0.42995453 0.42101404 -0.27827445 -0.2700147
26200000000 -0.33838487 -0.28823951 -0.42109823 0.42579508 -0.41876677 0.432715 -0.28335413 -0.26191989
26218750000 -0.33952096 -0.2800746 -0.41057649 0.43682873 -0.40923688 0.44608083 -0.28521034 -0.25617966
26237500000 -0.33947599 -0.27089515 -0.39852107 0.44942671 -0.39704412 0.46013516 -0.28318378 -0.24877004
26256250000 -0.33981252 -0.26173994 -0.38592538 0.46186703 -0.38583875 0.47107288 -0.27885494 -0.23749037
26275000000 -0.34070486 -0.25304016 -0.37434593 0.47491318 -0.37494507 0.483174 -0.27703387 -0.2224806
26293750000 -0.34091094 -0.24596407 -0.3616645 0.48735738 -0.36139849 0.4932811 -0.27897197 -0.20720756
26312500000 -0.34000322 -0.23913306 -0.34946549 0.49752724 -0.35024613 0.50244319 -0.28218719 -0.19552641
26331250000 -0.33802018 -0.23136568 -0.33681202 0.50848579 -0.33664271 0.51503664 -0.28343859 -0.18736559
26350000000 -0.33623597 -0.22316414 -0.32243523 0.51853049 -0.32060474 0.52448434 -0.28074664 -0.17917897
26368750000 -0.33518681 -0.21516159 -0.30936432 0.52913541 -0.30782977 0.53301221 -0.27580875 -0.16856019
26387500000 -0.33466941 -0.20850313 -0.29367206 0.54062921 -0.29431579 0.5438599 -0.27286071 -0.15621845
26406250000 -0.33429119 -0.20342936 -0.27789968 0.54809272 -0.2786026 0.55329013 -0.27228716 -0.14472578
26425000000 -0.33302736 -0.19900684 -0.26469404 0.55692101 -0.26267937 0.5620451 -0.27191511 -0.13648504
26443750000 -0.32870311 -0.1952356 -0.24795322 0.56684476 -0.24587061 0.56934947 -0.26883459 -0.13021824
26462500000 -0.32272753 -0.19141012 -0.23106611 0.57452577 -0.23113692 0.57677633 -0.26240075 -0.12330665
26481250000 -0.31618828 -0.18514834 -0.21503402 0.58290333 -0.21475895 0.58613962 -0.25501114 -0.11409126
26500000000 -0.31112203 -0.17677703 -0.19949743 0.59038061 -0.19794217 0.59193057 -0.24903189 -0.10367878
26518750000 -0.30923447 -0.16876359 -0.18336222 0.59738833 -0.18289921 0.59919035 -0.24551079 -0.094787598
26537500000 -0.3090632 -0.16310075 -0.16595222 0.60237247 -0.16330087 0.60488039 -0.24234566 -0.08860682
26556250000 -0.30749574 -0.16057789 -0.14886434 0.60692221 -0.14738324 0.60694873 -0.23756915 -0.085247725
26575000000 -0.30320713 -0.15903026 -0.13051744 0.61238176 -0.13111871 0.6144492 -0.23112115 -0.082282387
26593750000 -0.29784241 -0.15620643 -0.11160794 0.61649364 -0.10974111 0.61839753 -0.22242287 -0.078468204
26612500000 -0.2941232 -0.15236539 -0.094979435 0.62029886 -0.092759877 0.62085611 -0.21359922 -0.074691944
26631250000 -0.29130593 -0.15021786 -0.077037871 0.62477887 -0.073570564 0.62593639 -0.2058208 -0.070567705
26650000000 -0.28753686 -0.1510749 -0.058258839 0.62633997 -0.055578262 0.62671155 -0.19748774 -0.067402489
26668750000 -0.280099 -0.15176128 -0.04101694 0.62789321 -0.039208427 0.6310674 -0.18874437 -0.06621512
26687500000 -0.27099916 -0.14908393 -0.022367323 0.63074672 -0.018340822 0.63237888 -0.17940125 -0.065190911
26706250000 -0.26573515 -0.14330944 -0.003302166 0.63113332 -0.0013161027 0.6318506 -0.16886601 -0.06396614
26725000000 -0.26527753 -0.13833272 0.014036054 0.63136297 0.01872476 0.63401973 -0.15910804 -0.062095076
26743750000 -0.26681033 -0.13923909 0.032910857 0.63133734 0.037955083 0.63103968 -0.15000823 -0.059452552
26762500000 -0.26508322 -0.14434622 0.052053094 0.62930125 0.053797159 0.63193595 -0.14248088 -0.057994179
26781250000 -0.25837862 -0.14872882 0.070314303 0.6275003 0.075517267 0.63177693 -0.13636281 -0.057719976
26800000000 -0.25034225 -0.14830831 0.089530699 0.62570965 0.093730427 0.6257326 -0.13029073 -0.059689984
26818750000 -0.24543826 -0.14463928 0.10754296 0.62260401 0.11039941 0.62382948 -0.12479157 -0.06301786
26837500000 -0.24502969 -0.14320435 0.12531303 0.61952055 0.13156879 0.62004793 -0.11823983 -0.06718564
26856250000 -0.24579465 -0.14739659 0.14347905 0.61458659 0.14794123 0.61325932 -0.11021866 -0.072240166
26875000000 -0.24350667 -0.15440044 0.16082351 0.60953307 0.16422936 0.61220574 -0.10150361 -0.076602362
26893750000 -0.23800603 -0.15957026 0.18021159 0.60516262 0.18654855 0.60651135 -0.092941344 -0.079069927
26912500000 -0.23165371 -0.16043019 0.19903755 0.59722471 0.20145112 0.59647626 -0.085781246 -0.082175508
26931250000 -0.22879577 -0.1603846 0.21362117 0.59137213 0.21692643 0.59305239 -0.081529468 -0.086447254
26950000000 -0.22881162 -0.16160622 0.23241341 0.58665305 0.23610519 0.58510029 -0.077605121 -0.092380241
26968750000 -0.2290089 -0.16548502 0.24910054 0.57584763 0.25112769 0.57805592 -0.071738929 -0.099615738
26987500000 -0.22772214 -0.16967759 0.26328385 0.56939131 0.27045804 0.5697757 -0.065836288 -0.10565241
27006250000 -0.22573009 -0.17200197 0.28266847 0.56063861 0.28402844 0.55960256 -0.061840001 -0.10918163
27025000000 -0.22527486 -0.17353347 0.29722428 0.55028409 0.302847 0.55351794 -0.060835578 -0.11334936
27043750000 -0.2268368 -0.17619182 0.31387252 0.54332721 0.31867704 0.53639477 -0.061073992 -0.12137539
27062500000 -0.22904046 -0.18130699 0.32936051 0.53150803 0.32601228 0.53072208 -0.059972458 -0.13280541
27081250000 -0.23039782 -0.18723758 0.34294435 0.5223285 0.35099313 0.52420187 -0.055041295 -0.14331815
27100000000 -0.22972737 -0.19260137 0.35852677 0.5091663 0.36296058 0.50171828 -0.049124762 -0.15122384
27118750000 -0.22883351 -0.19665861 0.36951879 0.49828139 0.36815053 0.49666303 -0.046652131 -0.15630588
27137500000 -0.2282507 -0.19914825 0.38698757 0.49036273 0.38728118 0.48714274 -0.047594916 -0.16091967
27156250000 -0.22895239 -0.20074023 0.40225092 0.47344631 0.39772764 0.47257984 -0.048968986 -0.16798516
27175000000 -0.23178203 -0.20212699 0.40874484 0.46192721 0.41280225 0.46066141 -0.048647478 -0.17559534
27193750000 -0.23623896 -0.20396955 0.42442927 0.45378456 0.42266214 0.44216347 -0.049065068 -0.18093833
27212500000 -0.24111937 -0.20715378 0.43765694 0.43343437 0.43077201 0.43303126 -0.052131243 -0.18415459
27231250000 -0.24531502 -0.21150574 0.44402653 0.42263478 0.44549119 0.4192372 -0.060031384 -0.18973368
27250000000 -0.24833383 -0.21618758 0.46205124 0.40886325 0.45343822 0.40440229 -0.068621755 -0.19983441
27268750000 -0.25059998 -0.22002843 0.46633318 0.39020142 0.46471769 0.39176098 -0.072999433 -0.21271858
27287500000 -0.25414816 -0.2222399 0.47633693 0.38685951 0.47471559 0.37379646 -0.072830193 -0.22227535
27306250000 -0.25818068 -0.22386156 0.49325472 0.36565009 0.47887939 0.35909316 -0.072223321 -0.22594443
27325000000 -0.26377365 -0.22634955 0.49275833 0.34804761 0.48795471 0.3512218 -0.077430941 -0.22667859
27343750000 -0.2676281 -0.22839208 0.50352347 0.33969262 0.50236636 0.33427086 -0.086405039 -0.22989337
27362500000 -0.27099311 -0.23028919 0.51387316 0.32296354 0.50522304 0.31675845 -0.094873391 -0.23830032
27381250000 -0.27584711 -0.23047334 0.52400935 0.30858329 0.51479691 0.30364394 -0.099613741 -0.2470355
27400000000 -0.28123561 -0.23069189 0.52838665 0.28863084 0.51509911 0.28125072 -0.10126588 -0.25131267
27418750000 -0.28793007 -0.23156723 0.52971447 0.27902213 0.51554972 0.27970967 -0.10630853 -0.25080255
27437500000 -0.29260489 -0.23328589 0.54269803 0.26445785 0.53909534 0.26398876 -0.11635914 -0.24935612
27456250000 -0.29557678 -0.23458421 0.54560107 0.24260497 0.53707385 0.23696062 -0.12901975 -0.2520346
27475000000 -0.2998513 -0.23389339 0.5491333 0.23314112 0.53811067 0.22980855 -0.13974865 -0.25931051
27493750000 -0.30557981 -0.23261026 0.56323236 0.2156114 0.54361397 0.21320446 -0.14504634 -0.26725799
27512500000 -0.31418443 -0.2323864 0.55939889 0.1935643 0.54995286 0.2050651 -0.14858651 -0.27138028
27531250000 -0.32050464 -0.23278047 0.56222278 0.19185932 0.56278735 0.17791609 -0.15392967 -0.27078164
27550000000 -0.32389593 -0.23400421 0.57828671 0.16664289 0.54926735 0.16074309 -0.16246626 -0.269963
27568750000 -0.32827485 -0.23278345 0.56664205 0.14409885 0.56048179 0.15993942 -0.1740786 -0.27152678
27587500000 -0.33173212 -0.22865169 0.57166183 0.14023444 0.56488168 0.13036452 -0.182763 -0.27339041
27606250000 -0.33701667 -0.22493629 0.57726741 0.11905584 0.5548206 0.12504667 -0.18884949 -0.27478424
27625000000 -0.3433781 -0.22104278 0.57831705 0.1098721 0.57092464 0.11283377 -0.1961253 -0.27212113
27643750000 -0.34892917 -0.21872686 0.5859068 0.085075386 0.56636268 0.086431414 -0.2049482 -0.26842317
27662500000 -0.35651404 -0.21652937 0.57209224 0.067451969 0.56281966 0.076748244 -0.2166934 -0.26698768
27681250000 -0.36351049 -0.21288219 0.57766032 0.062148374 0.56347752 0.061739389 -0.22761127 -0.26744658
27700000000 -0.37034473 -0.21046041 0.58307481 0.039526016 0.56470329 0.051699232 -0.23509307 -0.26815
27718750000 -0.37561521 -0.20828564 0.58020967 0.025132755 0.57017851 0.034456607 -0.24052541 -0.26601943
27737500000 -0.37864065 -0.20634222 0.58086503 0.0095584383 0.56851178 0.016575838 -0.24700588 -0.26148817
27756250000 -0.38123468 -0.20269175 0.57426894 -0.005872868 0.56280679 0.00070681801 -0.25647441 -0.25692442
27775000000 -0.38436452 -0.19600947 0.57196534 -0.012869257 0.559192 -0.0027746579 -0.26659116 -0.25387505
27793750000 -0.38714004 -0.18967366 0.58171672 -0.030870447 0.57299149 -0.017824287 -0.27243352 -0.25304329
27812500000 -0.39108637 -0.18512797 0.57243192 -0.056164764 0.56671357 -0.044182442 -0.27628562 -0.25202557
27831250000 -0.39560485 -0.17888664 0.56743246 -0.059473816 0.55889755 -0.053180702 -0.28059408 -0.2457943
27850000000 -0.39890006 -0.17372455 0.57224548 -0.079825044 0.55543941 -0.062563077 -0.28562602 -0.2374246
27868750000 -0.4041875 -0.1671827 0.55811757 -0.091936253 0.56036353 -0.068835139 -0.294245 -0.2295499
27887500000 -0.40709406 -0.16218589 0.56373936 -0.10060424 0.56194961 -0.09523464 -0.30066946 -0.22352917
27906250000 -0.41014406 -0.15863205 0.55808592 -0.12352137 0.54847467 -0.10315155 -0.305951 -0.21816096
27925000000 -0.41128749 -0.15301159 0.55290747 -0.13341138 0.56056285 -0.11563324 -0.30949387 -0.20961007
27943750000 -0.41325459 -0.14809948 0.54706579 -0.14916468 0.54753596 -0.14191094 -0.31546292 -0.20130618
27962500000 -0.41624451 -0.14082426 0.54450417 -0.15321161 0.54081059 -0.14010338 -0.32364571 -0.19249095
27981250000 -0.41811204 -0.1367956 0.5496372 -0.17834537 0.54711795 -0.1583854 -0.32980058 -0.18891312
28000000000 -0.41948268 -0.13216774 0.52987993 -0.19479086 0.53921098 -0.1733696 -0.33356628 -0.18560733
28018750000 -0.41781709 -0.12555687 0.53136778 -0.19785121 0.53465831 -0.19346321 -0.33287546 -0.17830895
28037500000 -0.41817898 -0.11752204 0.52949142 -0.22228156 0.5153904 -0.19940823 -0.3327122 -0.16760732
28056250000 -0.42171949 -0.10699574 0.51233482 -0.23172329 0.52825826 -0.19771618 -0.33629644 -0.15372707
28075000000 -0.42515925 -0.10283215 0.51198405 -0.23266628 0.52965385 -0.23370573 -0.34065488 -0.14461763
28093750000 -0.42743784 -0.10202641 0.51797056 -0.25595802 0.50944233 -0.24394795 -0.34464887 -0.13821234
28112500000 -0.42599395 -0.1008299 0.49658054 -0.27806294 0.50713485 -0.25551251 -0.34504408 -0.13230027
28131250000 -0.42194399 -0.094236806 0.4897204 -0.27712613 0.49422652 -0.26392424 -0.34323731 -0.12306841
28150000000 -0.41873783 -0.085775353 0.48985195 -0.296639 0.5016042 -0.27102798 -0.34071946 -0.11240233
28168750000 -0.41930863 -0.077610537 0.47733301 -0.30472174 0.49497005 -0.30016929 -0.34117073 -0.10287255
28187500000 -0.42057955 -0.073585093 0.47876582 -0.32037714 0.47866377 -0.31119728 -0.34204939 -0.095604137
28206250000 -0.41945037 -0.071532592 0.45967078 -0.3384985 0.46894124 -0.31999102 -0.34161785 -0.088978626
28225000000 -0.41309622 -0.067605183 0.45119399 -0.34216255 0.46745932 -0.32155797 -0.33662164 -0.079352841
28243750000 -0.40624934 -0.063082956 0.44607523 -0.35457385 0.47198418 -0.34715134 -0.33057055 -0.070649445
28262500000 -0.4032954 -0.056288607 0.44515622 -0.36612469 0.44648024 -0.36332589 -0.32870334 -0.060924631
28281250000 -0.40192136 -0.050451025 0.43417677 -0.39134064 0.44491667 -0.36533859 -0.32712317 -0.052566897
28300000000 -0.3996619 -0.045594152 0.41161668 -0.39602104 0.43516967 -0.39040971 -0.32475618 -0.045919739
28318750000 -0.39608723 -0.041038804 0.40802705 -0.40076494 0.41862085 -0.39396122 -0.31949988 -0.039524853
28337500000 -0.39225811 -0.036311261 0.40032551 -0.41477153 0.41873297 -0.40570787 -0.31278026 -0.033013411
28356250000 -0.39025691 -0.032294579 0.39374369 -0.43122986 0.408526 -0.42500314 -0.30755112 -0.025757259
28375000000 -0.38979149 -0.029725539 0.37685946 -0.44834325 0.38919383 -0.44355226 -0.30440155 -0.019171748
28393750000 -0.3870326 -0.028680146 0.36104846 -0.4553462 0.36752415 -0.44236398 -0.30222622 -0.01392167
28412500000 -0.37954751 -0.02910425 0.34844753 -0.46006149 0.37296039 -0.44880661 -0.29526198 -0.012053817
28431250000 -0.37227267 -0.030608099 0.34600577 -0.46981993 0.35912287 -0.47672579 -0.28703862 -0.012210703
28450000000 -0.36679915 -0.027590545 0.33053932 -0.49430299 0.33936429 -0.48465896 -0.27806386 -0.0083838291
28468750000 -0.3614814 -0.023004243 0.30667415 -0.5012176 0.32335654 -0.49765933 -0.26955703 -0.0015784937
