!Keysight Technologies,N5225A,MY55451607,A.10.47.03
!Date: Friday, May 31, 2024 11:43:20
!Correction: S11(Full 2 Port(1,2)) 
!S21(Full 2 Port(1,2)) 
!S12(Full 2 Port(1,2)) 
!S22(Full 2 Port(1,2)) 
!S2P File: Measurements: S11, S21, S12, S22:
# Hz S  RI   R 50
25000000000 0.17932361 0.031165639 0.1730682 0.084987603 0.17282078 0.085823223 0.073505782 -0.14397393
25018750000 0.17252381 0.020414758 0.17892431 0.071235999 0.17946516 0.07251671 0.075013712 -0.15112704
25037500000 0.16234623 0.0098679522 0.18407753 0.057900388 0.18500505 0.058000937 0.078355931 -0.15785493
25056250000 0.14865719 -0.0022043439 0.18806197 0.043842643 0.18787698 0.043806165 0.082075886 -0.16299823
25075000000 0.13306539 -0.015681403 0.19145389 0.030198965 0.19116846 0.031110965 0.085179254 -0.1671709
25093750000 0.11688019 -0.03009939 0.19381754 0.015159784 0.19427973 0.016444771 0.087247759 -0.171306
25112500000 0.10078084 -0.043336112 0.19415182 0.00097429391 0.19517009 0.0019100197 0.08881592 -0.17633647
25131250000 0.084211789 -0.053368226 0.19499399 -0.012934094 0.19565414 -0.012664543 0.090871848 -0.18159059
25150000000 0.065523699 -0.059014056 0.19431467 -0.028146261 0.19399877 -0.027088843 0.093081117 -0.18706883
25168750000 0.043625679 -0.06086693 0.19162692 -0.042309824 0.19255976 -0.040660895 0.094812594 -0.19126543
25187500000 0.017826904 -0.060280729 0.18912201 -0.056230541 0.19014606 -0.055768538 0.096379325 -0.19523925
25206250000 -0.010396789 -0.058690984 0.18474515 -0.07127291 0.18562818 -0.070180863 0.096708506 -0.19971888
25225000000 -0.038553905 -0.055906072 0.17893942 -0.08463484 0.18045571 -0.084309101 0.09626963 -0.20461002
25243750000 -0.064170182 -0.051110245 0.1735795 -0.098608963 0.17409065 -0.098127469 0.095420703 -0.21032432
25262500000 -0.086788394 -0.04249895 0.16496477 -0.11280347 0.16661784 -0.11169938 0.094348475 -0.21708865
25281250000 -0.10660758 -0.028253045 0.15597017 -0.12412476 0.1575738 -0.12438144 0.09389732 -0.22445071
25300000000 -0.12481311 -0.0089668417 0.14707558 -0.13613647 0.14795843 -0.13617793 0.094613113 -0.23216358
25318750000 -0.14210396 0.014195321 0.13598707 -0.14726542 0.13695779 -0.14746231 0.096161224 -0.23886552
25337500000 -0.15796766 0.039243318 0.12409544 -0.15736412 0.12502186 -0.15760198 0.097524017 -0.24420056
25356250000 -0.17106357 0.064525753 0.11093518 -0.1658622 0.11206211 -0.16651495 0.097926028 -0.24816935
25375000000 -0.17982964 0.088972434 0.098360717 -0.17292553 0.098854937 -0.17380305 0.096962959 -0.25211844
25393750000 -0.18288408 0.11319123 0.085139103 -0.18035938 0.085528433 -0.18045877 0.094918206 -0.2565169
25412500000 -0.18018469 0.13796011 0.070588365 -0.1855897 0.071470611 -0.18585743 0.092828952 -0.26109833
25431250000 -0.17250872 0.1639377 0.056575403 -0.18946327 0.056635145 -0.19001961 0.090706676 -0.26581997
25450000000 -0.16172494 0.19108663 0.042354532 -0.19230652 0.04199839 -0.19172855 0.088260598 -0.27014837
25468750000 -0.14984556 0.21715921 0.028395865 -0.19355577 0.028711811 -0.19306912 0.08517912 -0.27441502
25487500000 -0.13697237 0.24065629 0.015033016 -0.19473882 0.014720245 -0.19449331 0.08213836 -0.27950701
25506250000 -0.12178906 0.25985274 0.00012526877 -0.19509497 0.00014697688 -0.19384982 0.079442777 -0.28495282
25525000000 -0.10398606 0.27441525 -0.013915895 -0.19270666 -0.012920019 -0.19184719 0.07802479 -0.28982088
25543750000 -0.083220601 0.28591675 -0.026390247 -0.19080284 -0.025603039 -0.19001353 0.077556953 -0.29324529
25562500000 -0.060641177 0.29465133 -0.039670769 -0.18840109 -0.038536761 -0.18699257 0.076568976 -0.29519805
25581250000 -0.037095595 0.30069172 -0.052342676 -0.18461546 -0.050398402 -0.18337208 0.074025184 -0.29629189
25600000000 -0.013375085 0.30320492 -0.064703085 -0.17995723 -0.062823698 -0.17939214 0.070194021 -0.29801893
25618750000 0.010659054 0.30264869 -0.076225288 -0.17440766 -0.074536718 -0.17373084 0.066290326 -0.30080706
25637500000 0.034443885 0.29971692 -0.087568715 -0.16867776 -0.085134774 -0.16814347 0.063059509 -0.30389759
25656250000 0.055708405 0.29454798 -0.098657176 -0.16214092 -0.095886782 -0.16227274 0.060192764 -0.3059231
25675000000 0.073720634 0.2864902 -0.1091264 -0.15551333 -0.10653228 -0.15564229 0.05626794 -0.30761486
25693750000 0.088969208 0.27301672 -0.11983332 -0.14801502 -0.11686768 -0.14798987 0.051144827 -0.31031734
25712500000 0.10319678 0.25491923 -0.12920499 -0.13948698 -0.12632783 -0.14005262 0.046218835 -0.3153877
25731250000 0.11823404 0.23452462 -0.13795249 -0.13135077 -0.13570492 -0.1317648 0.043900412 -0.32188034
25750000000 0.13219994 0.21490194 -0.14723913 -0.12209181 -0.14455903 -0.12277739 0.044460922 -0.3275218
25768750000 0.14157997 0.19680136 -0.15547849 -0.111737 -0.15322511 -0.11347962 0.045980047 -0.33004504
25787500000 0.14473885 0.17834891 -0.16295175 -0.10156804 -0.1612481 -0.10281291 0.046539035 -0.33001816
25806250000 0.14222115 0.15734205 -0.17049021 -0.090294361 -0.16816309 -0.091851272 0.045082361 -0.3300395
25825000000 0.13697238 0.13444744 -0.17648014 -0.07873293 -0.17515415 -0.080564335 0.042197656 -0.33127326
25843750000 0.13020286 0.11186519 -0.18274006 -0.06683398 -0.18154074 -0.067989834 0.039423853 -0.33385721
25862500000 0.12093823 0.092779003 -0.18784334 -0.05322573 -0.18676479 -0.054962389 0.037150126 -0.3366853
25881250000 0.10713466 0.076915644 -0.19156218 -0.039869476 -0.19126104 -0.041378707 0.035026122 -0.34013259
25900000000 0.088281274 0.063942626 -0.19516234 -0.026020071 -0.19463816 -0.027169976 0.032687411 -0.34442931
25918750000 0.066085622 0.052890815 -0.19711162 -0.011130407 -0.19666713 -0.012170751 0.030911978 -0.34980991
25937500000 0.042028327 0.044977482 -0.19774736 0.0034227325 -0.19740517 0.0027909591 0.030379964 -0.35557976
25956250000 0.016615564 0.041430365 -0.197163 0.018334446 -0.19705197 0.017949253 0.030267123 -0.3611913
25975000000 -0.0099000838 0.042035095 -0.19544384 0.033350617 -0.19528064 0.033288889 0.029947415 -0.36658999
25993750000 -0.036809735 0.046515353 -0.19204895 0.048509479 -0.19195649 0.048237257 0.029523974 -0.37260059
26012500000 -0.061964363 0.055050205 -0.18693119 0.062757298 -0.18718785 0.062689394 0.029153341 -0.37924507
26031250000 -0.083598591 0.068106279 -0.18141699 0.076272786 -0.18103197 0.076474018 0.028803265 -0.38509053
26050000000 -0.10193882 0.086295761 -0.17428362 0.090157121 -0.17363758 0.089752533 0.027548295 -0.39010268
26068750000 -0.1182061 0.10977723 -0.16512151 0.10213617 -0.16492619 0.10200779 0.023743132 -0.3954829
26087500000 -0.1316223 0.13657665 -0.15648384 0.11303709 -0.15544611 0.11316729 0.018219568 -0.40264285
26106250000 -0.14208989 0.16464949 -0.14634274 0.12355328 -0.14512073 0.12322108 0.012607456 -0.41206267
26125000000 -0.14845659 0.19348329 -0.13574685 0.13214709 -0.13413636 0.13200469 0.00837442 -0.42198798
26143750000 -0.14965427 0.22186664 -0.12477179 0.14041048 -0.12291873 0.13967796 0.0050580115 -0.43056965
26162500000 -0.14575942 0.24948138 -0.11312351 0.146873 -0.11159565 0.14632373 3.0210429e-005 -0.43752691
26181250000 -0.13666335 0.27692124 -0.10213653 0.15262483 -0.1000215 0.15158728 -0.007354978 -0.44466466
26200000000 -0.12259807 0.30412713 -0.090367809 0.15754206 -0.088926695 0.15602992 -0.015569682 -0.45321003
26218750000 -0.10567578 0.33049107 -0.079259589 0.16072977 -0.077506162 0.15956259 -0.022917064 -0.46284214
26237500000 -0.087437555 0.35464615 -0.067906238 0.16408828 -0.06643898 0.16185357 -0.028589023 -0.47086802
26256250000 -0.067712031 0.37497726 -0.056467801 0.16574313 -0.055942737 0.16410819 -0.034395278 -0.47622761
26275000000 -0.04486968 0.39047569 -0.046472456 0.16749591 -0.045289561 0.1654253 -0.04297211 -0.47902033
26293750000 -0.018270051 0.40287653 -0.035589077 0.16936117 -0.035682037 0.16620801 -0.054881934 -0.48117957
26312500000 0.01067982 0.41434115 -0.025242172 0.16940205 -0.025345281 0.16695017 -0.06888134 -0.48490566
26331250000 0.039478749 0.42391911 -0.015900075 0.16974293 -0.015588336 0.16601861 -0.083192192 -0.49024251
26350000000 0.065894961 0.43032619 -0.0054594972 0.16893746 -0.0068190191 0.16577315 -0.096693933 -0.49615908
26368750000 0.091979325 0.4311572 0.0029325711 0.16758896 0.0027690327 0.16566141 -0.109072 -0.50103641
26387500000 0.11953754 0.42782298 0.013018538 0.1683953 0.011979239 0.16440764 -0.12154499 -0.50479442
26406250000 0.14830655 0.42221656 0.023923859 0.16561486 0.020540329 0.1630035 -0.13379563 -0.50752813
26425000000 0.17623925 0.41544896 0.030914791 0.16383311 0.028919611 0.16152412 -0.14620386 -0.50955343
26443750000 0.20155498 0.4062376 0.040151738 0.16417941 0.037470244 0.16041133 -0.15859425 -0.51062465
26462500000 0.22492859 0.39277682 0.049630053 0.16164148 0.046911191 0.1586639 -0.17100561 -0.50988913
26481250000 0.24883518 0.37558007 0.058112599 0.15925117 0.055163819 0.15612298 -0.18417433 -0.50742275
26500000000 0.27333385 0.35693547 0.066977739 0.15625195 0.063838273 0.15420918 -0.19849792 -0.50381738
26518750000 0.29670882 0.33931789 0.076150849 0.15386608 0.072376773 0.1505129 -0.21360077 -0.49983793
26537500000 0.31601083 0.32187086 0.086382926 0.14983575 0.080071948 0.14805856 -0.22895338 -0.49580672
26556250000 0.33042976 0.30204839 0.09455993 0.14569747 0.090920478 0.14483872 -0.24436176 -0.49168271
26575000000 0.3420423 0.27892098 0.10424081 0.14273725 0.099277377 0.13927467 -0.2591103 -0.48722619
26593750000 0.35201168 0.25268495 0.11441166 0.1364335 0.10795564 0.13640147 -0.27323925 -0.482407
26612500000 0.36085799 0.22550905 0.12203401 0.13116717 0.11827412 0.1309841 -0.28585717 -0.47734988
26631250000 0.36799583 0.19770555 0.13353102 0.12711483 0.12654337 0.12589829 -0.29707658 -0.47114295
26650000000 0.37310797 0.17034204 0.14389615 0.11775246 0.13745622 0.12010186 -0.30721477 -0.46244252
26668750000 0.37592512 0.144361 0.15044685 0.11213582 0.14585966 0.11204803 -0.31748641 -0.45186877
26687500000 0.37489581 0.12033698 0.16322915 0.10496303 0.15578741 0.10596435 -0.32904911 -0.43955895
26706250000 0.36805317 0.097381085 0.17104562 0.092294596 0.16572124 0.095994025 -0.34137163 -0.42763641
26725000000 0.35548201 0.07334581 0.17901696 0.084299564 0.1736597 0.087255538 -0.35336375 -0.41660231
26743750000 0.3400588 0.047282606 0.1898953 0.07134518 0.18413161 0.076199546 -0.36315659 -0.40593448
26762500000 0.32458952 0.020911019 0.19576733 0.058979061 0.1907461 0.063315049 -0.37092546 -0.39479584
26781250000 0.30956805 -0.002095531 0.20475329 0.047274284 0.19883028 0.052104179 -0.37764651 -0.38230836
26800000000 0.29195395 -0.019814672 0.21108921 0.030780166 0.20735848 0.036465045 -0.38433361 -0.36915317
26818750000 0.2698411 -0.033131439 0.21552227 0.015928255 0.21225582 0.020547533 -0.39073583 -0.3565461
26837500000 0.24406394 -0.044544291 0.22047611 -0.0012363771 0.21829434 0.0044870377 -0.39551064 -0.34502584
26856250000 0.21760494 -0.054327212 0.22287861 -0.019101981 0.22181989 -0.014857174 -0.39712572 -0.33410233
26875000000 0.19283281 -0.060193617 0.22615074 -0.037958138 0.222243 -0.032497056 -0.39609662 -0.32276845
26893750000 0.16877407 -0.0594909 0.22399028 -0.059968531 0.2238441 -0.051139303 -0.3937993 -0.30995965
26912500000 0.14387856 -0.052885417 0.21918128 -0.076390281 0.22111577 -0.07289841 -0.39213881 -0.29698813
26931250000 0.11854198 -0.042792514 0.21898037 -0.096578576 0.2153261 -0.092204317 -0.39124045 -0.28494626
26950000000 0.095568433 -0.03024387 0.20823488 -0.11988406 0.20885545 -0.11195163 -0.38951495 -0.27523643
26968750000 0.078167327 -0.014517852 0.19757296 -0.13467513 0.19893783 -0.13115101 -0.38585323 -0.26744545
26987500000 0.065284498 0.0061449306 0.18832195 -0.15509446 0.18762927 -0.1489954 -0.38077667 -0.2603769
27006250000 0.05510265 0.031497531 0.17055027 -0.17143519 0.17321277 -0.16596635 -0.37620008 -0.25288257
27025000000 0.046882622 0.056873493 0.15678643 -0.18495722 0.15733288 -0.18001939 -0.37249905 -0.24653423
27043750000 0.042264022 0.079761542 0.13765369 -0.19974893 0.14056653 -0.19376203 -0.37006789 -0.24287003
27062500000 0.045086708 0.099934392 0.11873432 -0.20813528 0.12023777 -0.2047846 -0.36705035 -0.24180232
27081250000 0.055075496 0.11864731 0.099572472 -0.2175803 0.10185067 -0.21120857 -0.36199465 -0.24250561
27100000000 0.070542842 0.13740297 0.078973316 -0.22166403 0.084248848 -0.21921167 -0.35594603 -0.24275653
27118750000 0.088198423 0.15462221 0.061618783 -0.22666307 0.062604442 -0.22313927 -0.35059366 -0.24143223
27137500000 0.10762109 0.16854882 0.038824093 -0.22968715 0.044642027 -0.22327791 -0.34730166 -0.23972106
27156250000 0.12986825 0.17733961 0.020116994 -0.2249127 0.026260981 -0.2238248 -0.34705946 -0.23887627
27175000000 0.15391527 0.18267287 0.0061807279 -0.22461736 0.0094772009 -0.22121632 -0.34920651 -0.23948373
27193750000 0.1782553 0.18520974 -0.014683411 -0.2235948 -0.007100211 -0.22016105 -0.35254371 -0.24140513
27212500000 0.20090786 0.18336523 -0.030318983 -0.21473257 -0.024223091 -0.21482688 -0.35722247 -0.24509208
27231250000 0.22131619 0.17563947 -0.042817939 -0.21256036 -0.037655875 -0.20949838 -0.36276138 -0.24947797
27250000000 0.24196807 0.16190913 -0.061194476 -0.20481442 -0.051994123 -0.20419785 -0.36860347 -0.25418276
27268750000 0.26330912 0.1442325 -0.069786698 -0.19583084 -0.064391524 -0.19746169 -0.37542522 -0.25830066
27287500000 0.28388876 0.125526 -0.084831387 -0.19386637 -0.076848343 -0.19248648 -0.38327464 -0.26024488
27306250000 0.301633 0.10657671 -0.09959887 -0.18050529 -0.090897344 -0.18527775 -0.39223996 -0.2606211
27325000000 0.31392688 0.086436145 -0.10555519 -0.17332681 -0.10152025 -0.17576206 -0.40224642 -0.26002207
27343750000 0.32142615 0.063738413 -0.11885722 -0.16781788 -0.11039834 -0.16963425 -0.41242325 -0.25776461
27362500000 0.32514337 0.037268519 -0.12936999 -0.15725337 -0.12265808 -0.16147202 -0.4223181 -0.2528058
27381250000 0.32630754 0.0086851949 -0.13998862 -0.14659201 -0.1310849 -0.15263034 -0.4331418 -0.24412648
27400000000 0.32544112 -0.020724045 -0.14643474 -0.13437673 -0.14395192 -0.14386316 -0.44590351 -0.23272748
27418750000 0.32219827 -0.048952118 -0.15445259 -0.12745532 -0.15087056 -0.12843288 -0.46087193 -0.22122119
27437500000 0.31552377 -0.075925685 -0.16561241 -0.11449954 -0.15527594 -0.12271541 -0.4755764 -0.21051185
27456250000 0.30468211 -0.10161979 -0.1694624 -0.10197442 -0.16865283 -0.11235654 -0.4871507 -0.20026071
27475000000 0.28910798 -0.1265329 -0.17691618 -0.093621075 -0.17391881 -0.098026216 -0.4958269 -0.18858086
27493750000 0.27043843 -0.15123649 -0.18483034 -0.077236921 -0.1805744 -0.086482726 -0.50201064 -0.17342719
27512500000 0.25020155 -0.1754242 -0.18458751 -0.065164477 -0.18398356 -0.074101441 -0.50827241 -0.1553659
27531250000 0.22850624 -0.1968464 -0.19436029 -0.05614024 -0.19266506 -0.06476754 -0.51532513 -0.13529432
27550000000 0.20480146 -0.21448869 -0.19778855 -0.034447797 -0.1984494 -0.045536712 -0.52147716 -0.11592515
27568750000 0.17782462 -0.22838743 -0.19395523 -0.025116554 -0.19795157 -0.034252703 -0.52599299 -0.096871056
27587500000 0.14754871 -0.23968948 -0.20142168 -0.012857722 -0.20530443 -0.019847734 -0.52776837 -0.077267282
27606250000 0.11577736 -0.24900128 -0.19981201 0.0036472359 -0.20294142 -0.0024292995 -0.52819079 -0.056330178
27625000000 0.083768889 -0.25496393 -0.20203413 0.017217901 -0.20427766 0.0083068637 -0.52773148 -0.034227677
27643750000 0.051033664 -0.25610134 -0.19717552 0.036880441 -0.20554581 0.026734894 -0.52681565 -0.012690161
27662500000 0.016460542 -0.25258836 -0.1921207 0.045322966 -0.20119901 0.042426553 -0.52380973 0.0075161364
27681250000 -0.019772127 -0.24656813 -0.19437553 0.062006902 -0.19768764 0.0581071 -0.51751852 0.026888765
27700000000 -0.055411428 -0.23914286 -0.18593296 0.079335988 -0.1923701 0.07269147 -0.50800622 0.046727385
27718750000 -0.087665588 -0.22888733 -0.1793897 0.09184622 -0.18742873 0.088197224 -0.49582237 0.068174526
27737500000 -0.11612208 -0.21296848 -0.17101319 0.10608617 -0.17972527 0.10429375 -0.48270756 0.090455361
27756250000 -0.14254145 -0.19024821 -0.16192058 0.11691783 -0.16929868 0.11882701 -0.4689967 0.11280164
27775000000 -0.16990635 -0.16299333 -0.15529329 0.12983629 -0.15843022 0.12996711 -0.45352873 0.13317423
27793750000 -0.19643669 -0.13427736 -0.14131981 0.14558138 -0.14916821 0.14356874 -0.43595481 0.15166268
27812500000 -0.21890593 -0.10471838 -0.12640029 0.15111396 -0.13420966 0.15627544 -0.41537213 0.16971748
27831250000 -0.23613735 -0.072766908 -0.11773428 0.16155703 -0.11991236 0.16472463 -0.39216781 0.18711051
27850000000 -0.24909504 -0.0368875 -0.099592097 0.17022613 -0.10563578 0.17245005 -0.36775255 0.20365235
27868750000 -0.25946319 0.0015000105 -0.08798451 0.17414293 -0.091730617 0.18014182 -0.34206644 0.21830548
27887500000 -0.26742154 0.039128277 -0.07127782 0.18298297 -0.073330246 0.18599416 -0.3150858 0.22996318
27906250000 -0.27002278 0.076383762 -0.054524474 0.18345378 -0.058042735 0.18739909 -0.28647065 0.23866579
27925000000 -0.26613277 0.11331333 -0.039946247 0.18629715 -0.040619604 0.19168596 -0.25626731 0.24292323
27943750000 -0.25791791 0.15182233 -0.024777085 0.18564011 -0.023150729 0.18842793 -0.22394702 0.24379434
27962500000 -0.24700481 0.19025835 -0.0094436454 0.18701142 -0.010257717 0.18817717 -0.18984883 0.24099992
27981250000 -0.23383747 0.22555134 0.0083255032 0.18100953 0.0073121875 0.18499057 -0.15423755 0.235918
28000000000 -0.21594007 0.25688422 0.018360991 0.17565356 0.020768452 0.17910324 -0.11949573 0.2278931
28018750000 -0.19244957 0.28591993 0.033282191 0.1719937 0.034192551 0.17137028 -0.087378308 0.21670847
28037500000 -0.1650873 0.31434828 0.044557787 0.16257313 0.041526169 0.16533035 -0.058226883 0.20012547
28056250000 -0.13759498 0.34138826 0.053199179 0.1567156 0.056357048 0.16124238 -0.03145292 0.1779871
28075000000 -0.11041529 0.36384881 0.064070828 0.14969605 0.065965958 0.14707138 -0.0060273879 0.15195967
28093750000 -0.081597202 0.37889171 0.07116925 0.13899305 0.06949085 0.14002644 0.017554991 0.12422646
28112500000 -0.049038596 0.3884066 0.075223461 0.13225298 0.076187216 0.13230927 0.036193803 0.095623411
28131250000 -0.013452508 0.39587066 0.0820245 0.12511316 0.080075346 0.12695161 0.048340935 0.066391364
28150000000 0.022395339 0.40145385 0.085613377 0.11728405 0.088007651 0.11933956 0.055804461 0.034524713
28168750000 0.055174131 0.40358651 0.08999902 0.11160338 0.088833034 0.10989226 0.059992947 0.00084173138
28187500000 0.085198067 0.4013826 0.092675693 0.10575701 0.090259805 0.10674459 0.062724963 -0.031443637
28206250000 0.11398042 0.39422718 0.096236549 0.10245286 0.093941458 0.10367341 0.063917167 -0.0598724
28225000000 0.14152676 0.38428208 0.10056644 0.097464979 0.10097501 0.10041872 0.061587125 -0.084246837
28243750000 0.16646223 0.37248531 0.10454239 0.093121082 0.10448293 0.092185408 0.055126324 -0.10547403
28262500000 0.1881447 0.35936961 0.10860449 0.088528946 0.10622976 0.092197701 0.04580123 -0.12570564
28281250000 0.20626517 0.34506932 0.11408303 0.086813182 0.11582466 0.088020235 0.035739832 -0.14573309
28300000000 0.2208423 0.3307344 0.12323083 0.081766896 0.11910667 0.082478456 0.025782879 -0.16478541
28318750000 0.23136763 0.31742135 0.12918419 0.075268015 0.12816676 0.080522887 0.01638324 -0.18196267
28337500000 0.23709463 0.30384642 0.13588348 0.069115229 0.13743943 0.071108997 0.0066514681 -0.19797279
28356250000 0.24051428 0.2903136 0.14241193 0.062299516 0.14342676 0.062632591 -0.003772316 -0.21328387
28375000000 0.24448712 0.27755901 0.15204984 0.053806741 0.14897327 0.055433586 -0.015004954 -0.22832388
28393750000 0.25063333 0.268401 0.1603153 0.040834446 0.16067065 0.048613593 -0.026691273 -0.2438699
28412500000 0.25708169 0.26523575 0.16588937 0.025973853 0.16974105 0.029652251 -0.038003191 -0.26024655
28431250000 0.26112151 0.2668474 0.1665411 0.013168535 0.16921821 0.01605621 -0.048670024 -0.27558646
28450000000 0.26354086 0.26936677 0.17218585 0.0024339338 0.17375426 0.002755129 -0.058677983 -0.28911969
28468750000 0.26750839 0.26978981 0.1751979 -0.017244695 0.17359512 -0.012546944 -0.070800632 -0.30092943
